  can0  160   [7]  31 23 26 00 08 FF E8
  can0  180   [8]  14 37 32 63 12 00 3D 10
  can0  182   [8]  00 00 00 00 00 1D 00 C5
  can0  1F9   [8]  20 20 14 37 00 00 4E 80
  can0  2DE   [8]  02 00 80 05 F0 00 0D 96
  can0  3AB   [4]  00 03 00 55
  can0  002   [5]  66 FF 00 07 43
  can0  284   [8]  00 00 00 00 00 00 28 AE
  can0  285   [8]  00 00 00 00 00 00 28 AF
  can0  280   [8]  03 DF 80 00 00 00 A1 40
  can0  5C5   [8]  44 01 58 B6 00 0C 00 7F
  can0  174   [8]  65 46 54 AA 0D 00 00 00
  can0  176   [7]  00 1E 00 26 DE E0 6D
  can0  177   [8]  FE 10 40 00 00 00 00 00
  can0  421   [3]  08 00 00
  can0  560   [6]  AC 14 30 06 7F C0
  can0  1A5   [7]  3F FE 00 00 00 32 24
  can0  2DE   [8]  02 00 80 05 F0 00 0D 96
  can0  160   [7]  31 23 25 00 08 FF E8
  can0  180   [8]  14 50 32 53 12 00 3E 10
  can0  182   [8]  00 00 00 00 00 1E 00 C5
  can0  1F9   [8]  20 20 14 50 00 00 4E 80
  can0  60D   [8]  08 06 18 00 00 00 40 00
  can0  002   [5]  66 FF 00 07 34
  can0  215   [7]  FF F0 FF 30 FF FF 00
  can0  216   [2]  40 00
  can0  245   [8]  FF E0 00 18 29 10 FF E1
  can0  6F6   [3]  7E 00 00
  can0  292   [8]  80 08 0A 80 0F A0 00 01
  can0  286   [2]  00 00
  can0  174   [8]  65 46 54 AA 0E 00 00 00
  can0  176   [7]  00 1E 00 26 DE E0 6E
  can0  177   [8]  FE 10 40 00 00 00 00 00
  can0  300   [2]  00 00
  can0  1A5   [7]  4F FE 00 00 00 32 24
  can0  2DE   [8]  02 00 80 05 F0 00 0D 96
  can0  160   [7]  31 23 25 00 08 FF E8
  can0  180   [8]  14 50 32 53 12 00 3F 10
  can0  182   [8]  00 00 00 00 00 1F 00 C5
  can0  1F9   [8]  20 20 14 50 00 00 4E 80
  can0  358   [8]  01 02 80 00 02 03 00 00
  can0  002   [5]  66 FF 00 07 25
  can0  284   [8]  00 00 00 00 00 00 29 AF
  can0  285   [8]  00 00 00 00 00 00 29 B0
  can0  280   [8]  03 E0 80 00 00 00 9E 40
  can0  354   [8]  00 00 00 00 00 08 04 00
  can0  174   [8]  65 46 54 AA 0F 00 00 00
  can0  176   [7]  00 1E 00 26 DE E0 6F
  can0  177   [8]  FE 10 40 00 00 00 00 00
  can0  1A5   [7]  5F FE 00 00 00 32 24
  can0  2DE   [8]  02 00 80 05 F0 00 0D 96
  can0  355   [7]  00 00 00 00 00 00 40
  can0  160   [7]  31 23 25 00 08 FF E8
  can0  180   [8]  14 50 32 53 12 00 30 10
  can0  182   [8]  00 00 00 00 00 10 00 C5
  can0  1F9   [8]  20 20 14 50 00 00 4E 80
  can0  35D   [8]  C0 03 00 00 00 00 00 00
  can0  002   [5]  66 FF 00 07 16
  can0  215   [7]  FF F0 FF 30 FF FF 00
  can0  216   [2]  40 00
  can0  245   [8]  FF E0 00 18 2A 10 FF E2
  can0  292   [8]  80 08 0A 80 0F A0 00 02
  can0  286   [2]  00 40
  can0  174   [8]  65 46 54 AA 00 00 00 00
  can0  176   [7]  00 1E 00 26 DE E0 60
  can0  177   [8]  FE 10 40 00 00 00 00 00
  can0  300   [2]  00 00
  can0  1A5   [7]  6F FE 00 00 00 32 24
  can0  2DE   [8]  02 00 80 05 F0 00 0D 96
  can0  160   [7]  31 23 25 00 08 FF E8
  can0  180   [8]  14 50 32 53 12 00 31 10
  can0  182   [8]  00 00 00 00 00 11 00 C5
  can0  1F9   [8]  20 20 14 50 00 00 4E 80
  can0  385   [7]  00 00 84 82 84 83 F0
  can0  002   [5]  66 FF 00 07 07
  can0  284   [8]  00 00 00 00 00 00 2A B0
  can0  285   [8]  00 00 00 00 00 00 2A B1
  can0  280   [8]  03 DF 80 00 00 00 A2 40
  can0  174   [8]  65 46 54 AA 01 00 00 00
  can0  176   [7]  00 1E 00 26 DE E0 61
  can0  177   [8]  FE 10 40 00 00 00 00 00
  can0  1A5   [7]  7F FE 00 00 00 32 24
  can0  2DE   [8]  02 00 80 05 F0 00 0D 96
  can0  160   [7]  31 23 25 00 08 FF E8
  can0  180   [8]  14 50 32 53 12 00 32 10
  can0  182   [8]  00 00 00 00 00 12 00 C5
  can0  1F9   [8]  20 20 14 50 00 00 4E 80
  can0  3AB   [4]  00 03 00 55
  can0  002   [5]  66 FF 00 07 F8
  can0  215   [7]  FF F0 FF 30 FF FF 00
  can0  216   [2]  40 00
  can0  245   [8]  FF E0 00 18 2B 10 FF E3
  can0  292   [8]  80 08 0A 80 0F A0 00 03
  can0  286   [2]  00 80
  can0  174   [8]  65 46 54 AA 02 00 00 00
  can0  176   [7]  00 1E 00 26 DE E0 62
  can0  177   [8]  FE 10 40 00 00 00 00 00
  can0  300   [2]  00 00
  can0  1A5   [7]  8F FE 00 00 00 32 24
  can0  2DE   [8]  02 00 80 05 F0 00 0D 96
  can0  160   [7]  31 23 25 00 08 FF E8
  can0  180   [8]  14 50 32 53 12 00 33 10
  can0  182   [8]  00 00 00 00 00 13 00 C5
  can0  1F9   [8]  20 20 14 50 00 00 4E 80
  can0  002   [5]  66 FF 00 07 E9
  can0  284   [8]  00 00 00 00 00 00 2B B1
  can0  285   [8]  00 00 00 00 00 00 2B B2
  can0  280   [8]  03 E1 80 00 00 00 9D 40
  can0  354   [8]  00 00 00 00 00 10 04 00
  can0  174   [8]  65 46 54 AA 03 00 00 00
  can0  176   [7]  00 1E 00 26 DE E0 63
  can0  177   [8]  FE 10 40 00 00 00 00 00
  can0  421   [3]  08 00 00
  can0  1A5   [7]  9F FE 00 00 00 32 24
  can0  2DE   [8]  02 00 80 05 F0 00 0D 96
  can0  355   [7]  00 00 00 00 00 00 40
  can0  160   [7]  31 23 25 00 08 FF E8
  can0  180   [8]  14 50 32 53 12 00 34 10
  can0  182   [8]  00 00 00 00 00 14 00 C5
  can0  002   [5]  66 FF 00 07 DA
  can0  1F9   [8]  20 20 14 50 00 00 4E 80
  can0  215   [7]  FF F0 FF 30 FF FF 00
  can0  551   [8]  85 11 00 80 FF 02 80 FF
  can0  216   [2]  40 00
  can0  580   [8]  00 35 80 02 8F 00 00 28
  can0  6E2   [8]  00 00 79 00 00 00 00 55
  can0  245   [8]  FF E0 00 18 2C 10 FF E0
  can0  292   [8]  80 08 0A 80 0F A0 00 00
  can0  286   [2]  00 C0
  can0  5E4   [3]  00 00 00
  can0  174   [8]  65 46 54 AA 04 00 00 00
  can0  176   [7]  00 1E 00 26 DE E0 64
  can0  177   [8]  FE 10 40 00 00 00 00 00
  can0  300   [2]  00 00
  can0  1A5   [7]  AF FE 00 00 00 32 24
  can0  2DE   [8]  02 00 80 05 F0 00 0D 96
  can0  160   [7]  31 23 25 00 08 FF E8
  can0  180   [8]  14 50 32 53 12 00 35 10
  can0  002   [5]  66 FF 01 07 DB
  can0  182   [8]  00 00 00 00 00 15 00 C5
  can0  1F9   [8]  20 20 14 50 00 00 4E 80
  can0  284   [8]  00 00 00 00 00 00 2C B2
  can0  285   [8]  00 00 00 00 00 00 2C B3
  can0  280   [8]  03 E1 80 00 00 00 9F 40
  can0  174   [8]  65 46 54 AA 05 00 00 00
  can0  176   [7]  00 1E 00 26 DE E0 65
  can0  177   [8]  FE 10 40 00 00 00 00 00
  can0  1A5   [7]  BF FE 00 00 00 32 24
  can0  2DE   [8]  02 00 80 05 F0 00 0D 96
  can0  160   [7]  31 23 25 00 08 FF E8
  can0  180   [8]  14 50 32 53 12 00 36 10
  can0  002   [5]  66 FF 01 07 AC
  can0  182   [8]  00 00 00 00 00 16 00 C5
  can0  1F9   [8]  20 20 14 50 00 00 4E 80
  can0  215   [7]  FF F0 FF 30 FF FF 00
  can0  216   [2]  40 00
  can0  625   [6]  02 00 FF 1D 10 00
  can0  245   [8]  FF E0 00 18 2D 10 FF E1
  can0  292   [8]  80 08 0A 80 0F A0 00 01
  can0  286   [2]  00 00
  can0  174   [8]  65 46 54 AA 06 00 00 00
  can0  176   [7]  00 1E 00 26 DE E0 66
  can0  177   [8]  FE 10 40 00 00 00 00 00
  can0  300   [2]  00 00
  can0  1A5   [7]  CF FE 00 00 00 32 24
  can0  2DE   [8]  02 00 80 05 F0 00 0D 96
  can0  002   [5]  66 FF 00 07 AD
  can0  160   [7]  31 23 25 00 08 FF E8
  can0  180   [8]  14 69 32 53 12 00 37 10
  can0  182   [8]  00 00 00 00 00 17 00 C5
  can0  1F9   [8]  20 20 14 69 00 00 4E 80
  can0  3AB   [4]  00 03 00 55
  can0  284   [8]  00 00 00 00 00 00 2D B3
  can0  285   [8]  00 00 00 00 00 00 2D B4
  can0  280   [8]  03 DF 80 00 00 00 A0 40
  can0  354   [8]  00 00 00 00 00 18 04 00
  can0  5C5   [8]  44 01 58 B6 00 0C 00 7F
  can0  174   [8]  65 46 54 AA 07 00 00 00
  can0  176   [7]  00 1E 00 26 DE E0 67
  can0  177   [8]  FE 10 40 00 00 00 00 00
  can0  560   [6]  AC 15 31 06 7F C0
  can0  1A5   [7]  DF FE 00 00 00 32 24
  can0  2DE   [8]  02 00 80 05 F0 00 0D 96
  can0  355   [7]  00 00 00 00 00 00 40
  can0  60D   [8]  08 06 18 00 00 00 40 00
  can0  002   [5]  66 FF 00 07 9E
  can0  160   [7]  31 23 25 00 08 FF E8
  can0  180   [8]  14 69 32 53 12 00 38 10
  can0  182   [8]  00 00 00 00 00 18 00 C5
  can0  1F9   [8]  20 20 14 69 00 00 4E 80
  can0  215   [7]  FF F0 FF 30 FF FF 00
  can0  216   [2]  40 00
  can0  245   [8]  FF E0 00 18 2E 10 FF E2
  can0  6F6   [3]  7C 00 00
  can0  292   [8]  80 08 0A 80 0F A0 00 02
  can0  286   [2]  00 40
  can0  174   [8]  65 46 54 AA 08 00 00 00
  can0  176   [7]  00 1E 00 26 DE E0 68
  can0  177   [8]  FE 10 40 00 00 00 00 00
  can0  300   [2]  00 00
  can0  1A5   [7]  EF FE 00 00 00 32 24
  can0  2DE   [8]  02 00 80 05 F0 00 0D 96
  can0  358   [8]  01 02 80 00 02 03 00 00
  can0  002   [5]  66 FF 00 07 8F
  can0  160   [7]  31 23 25 00 08 FF E8
  can0  180   [8]  14 69 32 53 12 00 39 10
  can0  182   [8]  00 00 00 00 00 19 00 C5
  can0  1F9   [8]  20 20 14 69 00 00 4E 80
  can0  284   [8]  00 00 00 00 00 00 2E B4
  can0  285   [8]  00 00 00 00 00 00 2E B5
  can0  280   [8]  03 E1 80 00 00 00 9D 40
  can0  174   [8]  65 46 54 AA 09 00 00 00
  can0  176   [7]  00 1E 00 26 DE E0 69
  can0  177   [8]  FE 10 40 00 00 00 00 00
  can0  421   [3]  08 00 00
  can0  1A5   [7]  FF FE 00 00 00 32 24
  can0  2DE   [8]  02 00 80 05 F0 00 0D 96
  can0  35D   [8]  C0 03 00 00 00 00 00 00
  can0  002   [5]  66 FF 00 07 70
  can0  215   [7]  FF F0 FF 30 FF FF 00
  can0  160   [7]  31 23 25 00 08 FF E8
  can0  180   [8]  14 69 32 53 12 00 3A 10
  can0  182   [8]  00 00 00 00 00 1A 00 C5
  can0  1F9   [8]  20 20 14 69 00 00 4E 80
  can0  216   [2]  40 00
  can0  245   [8]  FF E0 00 18 2F 10 FF E3
  can0  292   [8]  80 08 0A 80 0F A0 00 03
  can0  286   [2]  00 80
  can0  174   [8]  65 46 54 AA 0A 00 00 00
  can0  176   [7]  00 1E 00 26 DE E0 6A
  can0  177   [8]  FE 10 40 00 00 00 00 00
  can0  300   [2]  00 00
  can0  1A5   [7]  0F FE 00 00 00 32 24
  can0  2DE   [8]  02 00 80 05 F0 00 0D 96
  can0  385   [7]  00 00 84 82 84 83 F0
  can0  002   [5]  66 FF 00 07 61
  can0  160   [7]  31 23 25 00 08 FF E8
  can0  180   [8]  14 69 32 53 12 00 3B 10
  can0  182   [8]  00 00 00 00 00 1B 00 C5
  can0  1F9   [8]  20 20 14 69 00 00 4E 80
  can0  284   [8]  00 00 00 00 00 00 2F B5
  can0  285   [8]  00 00 00 00 00 00 2F B6
  can0  280   [8]  03 E0 80 00 00 00 A0 40
  can0  354   [8]  00 00 00 00 00 00 04 00
  can0  174   [8]  65 46 54 AA 0B 00 00 00
  can0  176   [7]  00 1E 00 26 DE E0 6B
  can0  177   [8]  FE 10 40 00 00 00 00 00
  can0  1A5   [7]  1F FE 00 00 00 32 24
  can0  2DE   [8]  02 00 80 05 F0 00 0D 96
  can0  355   [7]  00 00 00 00 00 00 40
  can0  002   [5]  66 FF 00 07 52
  can0  215   [7]  FF F0 FF 30 FF FF 00
  can0  216   [2]  40 00
  can0  160   [7]  31 23 25 00 08 FF E8
  can0  180   [8]  14 69 32 53 12 00 3C 10
  can0  182   [8]  00 00 00 00 00 1C 00 C5
  can0  1F9   [8]  20 20 14 69 00 00 4E 80
  can0  3AB   [4]  00 03 00 55
  can0  245   [8]  FF E0 00 18 30 10 FF E0
  can0  292   [8]  80 08 0A 80 0F A0 00 00
  can0  286   [2]  00 C0
  can0  174   [8]  65 46 54 AA 0C 00 00 00
  can0  176   [7]  00 1E 00 26 DE E0 6C
  can0  177   [8]  FE 10 40 00 00 00 00 00
  can0  300   [2]  00 00
  can0  1A5   [7]  2F FE 00 00 00 32 24
  can0  2DE   [8]  02 00 80 05 F0 00 0D 96
  can0  002   [5]  66 FF 00 07 43
  can0  160   [7]  31 23 25 00 08 FF E8
  can0  180   [8]  14 69 32 53 12 00 3D 10
  can0  182   [8]  00 00 00 00 00 1D 00 C5
  can0  1F9   [8]  20 20 14 69 00 00 4E 80
  can0  280   [8]  03 E1 80 00 00 00 9E 40
  can0  284   [8]  00 00 00 00 00 00 30 B6
  can0  285   [8]  00 00 00 00 00 00 30 B7
  can0  174   [8]  65 46 54 AA 0D 00 00 00
  can0  176   [7]  00 1E 00 26 DE E0 6D
  can0  177   [8]  FE 10 40 00 00 00 00 00
  can0  1A5   [7]  3F FE 00 00 00 32 24
  can0  2DE   [8]  02 00 80 05 F0 00 0D 96
  can0  002   [5]  66 FF 00 07 34
  can0  215   [7]  FF F0 FF 30 FF FF 00
  can0  216   [2]  40 00
  can0  160   [7]  31 23 25 00 08 FF E8
  can0  180   [8]  14 69 32 53 12 00 3E 10
  can0  182   [8]  00 00 00 00 00 1E 00 C5
  can0  1F9   [8]  20 20 14 69 00 00 4E 80
  can0  245   [8]  FF E0 00 18 31 10 FF E1
  can0  292   [8]  80 08 0A 80 0F A0 00 01
  can0  286   [2]  00 00
  can0  551   [8]  85 11 00 80 FF 02 80 FF
  can0  580   [8]  00 3C 80 04 8F 00 00 29
  can0  174   [8]  65 46 54 AA 0E 00 00 00
  can0  5E4   [3]  00 00 00
  can0  176   [7]  00 1E 00 26 DE E0 6E
  can0  6E2   [8]  00 00 7A 00 00 00 00 55
  can0  177   [8]  FE 10 40 00 00 00 00 00
  can0  300   [2]  00 00
  can0  1A5   [7]  4F FE 00 00 00 32 24
  can0  2DE   [8]  02 00 80 05 F0 00 0D 96
  can0  002   [5]  66 FF 00 07 25
  can0  160   [7]  31 23 25 00 08 FF E8
  can0  180   [8]  14 82 32 53 12 00 3F 10
  can0  182   [8]  00 00 00 00 00 1F 00 C5
  can0  1F9   [8]  20 20 14 82 00 00 4E 80
  can0  280   [8]  03 E2 80 00 00 00 A2 40
  can0  284   [8]  00 00 00 00 00 00 31 B7
  can0  285   [8]  00 00 00 00 00 00 31 B8
  can0  354   [8]  00 00 00 00 00 08 04 00
  can0  174   [8]  65 46 54 AA 0F 00 00 00
  can0  176   [7]  00 1E 00 26 DE E0 6F
  can0  177   [8]  FE 10 40 00 00 00 00 00
  can0  421   [3]  08 00 00
  can0  1A5   [7]  5F FE 00 00 00 32 24
  can0  2DE   [8]  02 00 80 05 F0 00 0D 96
  can0  355   [7]  00 00 00 00 00 00 40
  can0  002   [5]  66 FF 00 07 16
  can0  215   [7]  FF F0 FF 30 FF FF 00
  can0  216   [2]  40 00
  can0  625   [6]  02 00 FF 1D 10 00
  can0  160   [7]  31 23 25 00 08 FF E8
  can0  180   [8]  14 82 32 53 12 00 30 10
  can0  182   [8]  00 00 00 00 00 10 00 C5
  can0  1F9   [8]  20 20 14 82 00 00 4E 80
  can0  245   [8]  FF E0 00 18 32 10 FF E2
  can0  292   [8]  80 08 0A 80 0F A0 00 02
  can0  286   [2]  00 40
  can0  174   [8]  65 46 54 AA 00 00 00 00
  can0  176   [7]  00 1E 00 26 DE E0 60
  can0  177   [8]  FE 10 40 00 00 00 00 00
  can0  300   [2]  00 00
  can0  1A5   [7]  6F FE 00 00 00 32 24
  can0  2DE   [8]  02 00 80 05 F0 00 0D 96
  can0  002   [5]  66 FF 00 07 07
  can0  284   [8]  00 00 00 00 00 00 32 B8
  can0  285   [8]  00 00 00 00 00 00 32 B9
  can0  160   [7]  31 23 25 00 08 FF E8
  can0  180   [8]  14 82 32 53 12 00 31 10
  can0  182   [8]  00 00 00 00 00 11 00 C5
  can0  1F9   [8]  20 20 14 82 00 00 4E 80
  can0  280   [8]  03 E0 80 00 00 00 9E 40
  can0  174   [8]  65 46 54 AA 01 00 00 00
  can0  3AB   [4]  00 03 00 55
  can0  176   [7]  00 1E 00 26 DE E0 61
  can0  5C5   [8]  44 01 58 B6 00 0C 00 7F
  can0  177   [8]  FE 10 40 00 00 00 00 00
  can0  560   [6]  AC 16 AD 06 7F C0
  can0  1A5   [7]  7F FE 00 00 00 32 24
  can0  2DE   [8]  02 00 80 05 F0 00 0D 96
  can0  60D   [8]  08 06 18 00 00 00 40 00
  can0  002   [5]  66 FF 01 07 E8
  can0  215   [7]  FF F0 FF 30 FF FF 00
  can0  216   [2]  40 00
  can0  245   [8]  FF E0 00 18 33 10 FF E3
  can0  6F6   [3]  7E 00 00
  can0  292   [8]  80 08 0A 80 1F A0 00 03
  can0  160   [7]  31 23 25 00 08 FF E8
  can0  180   [8]  14 82 32 53 12 00 32 10
  can0  182   [8]  00 00 00 00 00 12 00 C5
  can0  1F9   [8]  20 20 14 82 00 00 4E 80
  can0  174   [8]  65 46 54 AA 02 00 00 00
  can0  286   [2]  00 80
  can0  176   [7]  00 1E 00 26 DE E0 62
  can0  177   [8]  FE 10 40 00 00 00 00 00
  can0  300   [2]  00 00
  can0  1A5   [7]  8F FE 00 00 00 32 24
  can0  2DE   [8]  02 00 80 05 F0 00 0D 96
  can0  358   [8]  01 02 80 00 02 03 00 00
  can0  002   [5]  66 FF 00 07 E9
  can0  284   [8]  00 00 00 00 00 00 33 B9
  can0  285   [8]  00 00 00 00 00 00 33 BA
  can0  280   [8]  03 E3 80 00 00 00 A3 40
  can0  160   [7]  31 23 25 00 08 FF E8
  can0  180   [8]  14 82 32 53 12 00 33 10
  can0  182   [8]  00 00 00 00 00 13 00 C5
  can0  1F9   [8]  20 20 14 82 00 00 4E 80
  can0  174   [8]  65 46 54 AA 03 00 00 00
  can0  354   [8]  00 00 00 00 00 10 04 00
  can0  176   [7]  00 1E 00 26 DE E0 63
  can0  177   [8]  FE 10 40 00 00 00 00 00
  can0  1A5   [7]  9F FE 00 00 00 32 24
  can0  2DE   [8]  02 00 80 05 F0 00 0D 96
  can0  355   [7]  00 00 00 00 00 00 40
  can0  35D   [8]  C0 03 00 00 00 00 00 00
  can0  002   [5]  66 FF 00 07 DA
  can0  215   [7]  FF F0 FF 30 FF FF 00
  can0  216   [2]  40 00
  can0  245   [8]  FF E0 00 18 34 10 FF E0
  can0  292   [8]  80 08 0A 80 0F A0 00 00
  can0  286   [2]  00 C0
  can0  160   [7]  31 23 25 00 08 FF E8
  can0  180   [8]  14 82 32 53 12 00 34 10
  can0  182   [8]  00 00 00 00 00 14 00 C5
  can0  1F9   [8]  20 20 14 82 00 00 4E 80
  can0  174   [8]  65 46 54 AA 04 00 00 00
  can0  176   [7]  00 1E 00 26 DE E0 64
  can0  300   [2]  00 00
  can0  177   [8]  FE 10 40 00 00 00 00 00
  can0  1A5   [7]  AF FE 00 00 00 32 24
  can0  2DE   [8]  02 00 80 05 F0 00 0D 96
  can0  385   [7]  00 00 84 82 84 83 F0
  can0  002   [5]  66 FF 00 07 CB
  can0  284   [8]  00 00 00 00 00 00 34 BA
  can0  285   [8]  00 00 00 00 00 00 34 BB
  can0  280   [8]  03 DF 80 00 00 00 9F 40
  can0  160   [7]  31 23 25 00 08 FF E8
  can0  180   [8]  14 82 32 53 12 00 35 10
  can0  174   [8]  65 46 54 AA 05 00 00 00
  can0  182   [8]  00 00 00 00 00 15 00 C5
  can0  176   [7]  00 1E 00 26 DE E0 65
  can0  1F9   [8]  20 20 14 82 00 00 4E 80
  can0  177   [8]  FE 10 40 00 00 00 00 00
  can0  421   [3]  08 00 00
  can0  1A5   [7]  BF FE 00 00 00 32 24
  can0  2DE   [8]  02 00 80 05 F0 00 0D 96
  can0  002   [5]  66 FF 00 07 BC
  can0  215   [7]  FF F0 FF 30 FF FF 00
  can0  216   [2]  40 00
  can0  245   [8]  FF E0 00 18 35 10 FF E1
  can0  292   [8]  80 08 0A 80 1F A0 00 01
  can0  286   [2]  00 00
  can0  174   [8]  65 46 54 AA 06 00 00 00
  can0  160   [7]  31 23 25 00 08 FF E8
  can0  176   [7]  00 1E 00 26 DE E0 66
  can0  180   [8]  14 82 32 53 12 00 36 10
  can0  177   [8]  FE 10 40 00 00 00 00 00
  can0  182   [8]  00 00 00 00 00 16 00 C5
  can0  1F9   [8]  20 20 14 82 00 00 4E 80
  can0  300   [2]  00 00
  can0  3AB   [4]  00 03 00 55
  can0  1A5   [7]  CF FE 00 00 00 32 24
  can0  2DE   [8]  02 00 80 05 F0 00 0D 96
  can0  002   [5]  66 FF 00 07 AD
  can0  284   [8]  00 00 00 00 00 00 35 BB
  can0  285   [8]  00 00 00 00 00 00 35 BC
  can0  280   [8]  03 E1 80 00 00 00 9F 40
  can0  354   [8]  00 00 00 00 00 18 04 00
  can0  174   [8]  65 46 54 AA 07 00 00 00
  can0  160   [7]  31 23 25 00 08 FF E8
  can0  176   [7]  00 1E 00 26 DE E0 67
  can0  180   [8]  14 82 32 53 12 00 37 10
  can0  177   [8]  FE 10 40 00 00 00 00 00
  can0  182   [8]  00 00 00 00 00 17 00 C5
  can0  1F9   [8]  20 20 14 82 00 00 4E 80
  can0  1A5   [7]  DF FE 00 00 00 32 24
  can0  2DE   [8]  02 00 80 05 F0 00 0D 96
  can0  355   [7]  00 00 00 00 00 00 40
  can0  002   [5]  66 FF 00 07 9E
  can0  215   [7]  FF F0 FF 30 FF FF 00
  can0  216   [2]  40 00
  can0  245   [8]  FF E0 00 18 36 10 FF E2
  can0  292   [8]  80 08 0A 80 0F A0 00 02
  can0  286   [2]  00 40
  can0  5E4   [3]  00 00 00
  can0  174   [8]  65 46 54 AA 08 00 00 00
  can0  176   [7]  00 1E 00 26 DE E0 68
  can0  160   [7]  31 23 25 00 08 FF E8
  can0  177   [8]  FE 10 40 00 00 00 00 00
  can0  180   [8]  14 82 32 53 12 00 38 10
  can0  182   [8]  00 00 00 00 00 18 00 C5
  can0  1F9   [8]  20 20 14 82 00 00 4E 80
  can0  300   [2]  00 00
  can0  551   [8]  85 11 00 80 FF 02 80 FF
  can0  580   [8]  00 3C 80 06 8F 00 00 30
  can0  1A5   [7]  EF FE 00 00 00 32 24
  can0  6E2   [8]  00 00 7B 00 00 00 00 55
  can0  2DE   [8]  02 00 80 05 F0 00 0D 96
  can0  002   [5]  66 FF 00 07 8F
  can0  284   [8]  00 00 00 00 00 00 36 BC
  can0  285   [8]  00 00 00 00 00 00 36 BD
  can0  280   [8]  03 E0 80 00 00 00 A0 40
  can0  174   [8]  65 46 54 AA 09 00 00 00
  can0  176   [7]  00 1E 00 26 DE E0 69
  can0  177   [8]  FE 10 40 00 00 00 00 00
  can0  160   [7]  31 23 25 00 08 FF E8
  can0  180   [8]  14 82 32 53 12 00 39 10
  can0  182   [8]  00 00 00 00 00 19 00 C5
  can0  1F9   [8]  20 20 14 82 00 00 4E 80
  can0  1A5   [7]  FF FE 00 00 00 32 24
  can0  2DE   [8]  02 00 80 05 F0 00 0D 96
  can0  002   [5]  66 FF 00 07 70
  can0  215   [7]  FF F0 FF 30 FF FF 00
  can0  216   [2]  40 00
  can0  625   [6]  02 00 FF 1D 10 00
  can0  245   [8]  FF E0 00 18 37 10 FF E3
  can0  292   [8]  80 08 0A 80 0F A0 00 03
  can0  286   [2]  00 80
  can0  174   [8]  65 46 54 AA 0A 00 00 00
  can0  176   [7]  00 1E 00 26 DE E0 6A
  can0  177   [8]  FE 10 40 00 00 00 00 00
  can0  300   [2]  00 00
  can0  160   [7]  31 23 25 00 08 FF E8
  can0  180   [8]  14 82 32 53 12 00 3A 10
  can0  182   [8]  00 00 00 00 00 1A 00 C5
  can0  1F9   [8]  20 20 14 82 00 00 4E 80
  can0  1A5   [7]  0F FE 00 00 00 32 24
  can0  2DE   [8]  02 00 80 05 F0 00 0D 96
  can0  002   [5]  66 FF 00 07 61
  can0  284   [8]  00 00 00 00 00 00 37 BD
  can0  285   [8]  00 00 00 00 00 00 37 BE
  can0  280   [8]  03 DF 80 00 00 00 9E 40
  can0  354   [8]  00 00 00 00 00 00 04 00
  can0  5C5   [8]  44 01 58 B6 00 0C 00 7F
  can0  174   [8]  65 46 54 AA 0B 00 00 00
  can0  176   [7]  00 1E 00 26 DE E0 6B
  can0  177   [8]  FE 10 40 00 00 00 00 00
  can0  421   [3]  08 00 00
  can0  560   [6]  AC 17 0C 06 7F C0
  can0  160   [7]  31 23 25 00 08 FF E8
  can0  180   [8]  14 82 32 53 12 00 3B 10
  can0  182   [8]  00 00 00 00 00 1B 00 C5
  can0  1F9   [8]  20 20 14 82 00 00 4E 80
  can0  1A5   [7]  1F FE 00 00 00 32 24
  can0  3AB   [4]  00 03 00 55
  can0  2DE   [8]  02 00 80 05 F0 00 0D 96
  can0  355   [7]  00 00 00 00 00 00 40
  can0  60D   [8]  08 06 18 00 00 00 40 00
  can0  002   [5]  66 FF 00 07 52
  can0  215   [7]  FF F0 FF 30 FF FF 00
  can0  216   [2]  40 00
  can0  245   [8]  FF E0 00 18 38 10 FF E0
  can0  6F6   [3]  7F 00 00
  can0  292   [8]  80 08 0A 80 1F A0 00 00
  can0  286   [2]  00 C0
  can0  174   [8]  65 46 54 AA 0C 00 00 00
  can0  176   [7]  00 1E 00 26 DE E0 6C
  can0  177   [8]  FE 10 40 00 00 00 00 00
  can0  300   [2]  00 00
  can0  160   [7]  31 23 25 00 08 FF E8
  can0  180   [8]  14 82 32 53 12 00 3C 10
  can0  182   [8]  00 00 00 00 00 1C 00 C5
  can0  1F9   [8]  20 20 14 82 00 00 4E 80
  can0  1A5   [7]  2F FE 00 00 00 32 24
  can0  2DE   [8]  02 00 80 05 F0 00 0D 96
  can0  358   [8]  01 02 80 00 02 03 00 00
  can0  002   [5]  66 FF 00 07 43
  can0  284   [8]  00 00 00 00 00 00 38 BE
  can0  285   [8]  00 00 00 00 00 00 38 BF
  can0  280   [8]  03 E1 80 00 00 00 A0 40
  can0  174   [8]  65 46 54 AA 0D 00 00 00
  can0  176   [7]  00 1E 00 26 DE E0 6D
  can0  177   [8]  FE 10 40 00 00 00 00 00
  can0  160   [7]  31 23 25 00 08 FF E8
  can0  180   [8]  14 82 32 53 12 00 3D 10
  can0  182   [8]  00 00 00 00 00 1D 00 C5
  can0  1A5   [7]  3F FE 00 00 00 32 24
  can0  1F9   [8]  20 20 14 82 00 00 4E 80
  can0  2DE   [8]  02 00 80 05 F0 00 0D 96
  can0  35D   [8]  C0 03 00 00 00 00 00 00
  can0  002   [5]  66 FF 00 07 34
  can0  215   [7]  FF F0 FF 30 FF FF 00
  can0  216   [2]  40 00
  can0  245   [8]  FF E0 00 18 39 10 FF E1
  can0  292   [8]  80 08 0A 80 0F A0 00 01
  can0  286   [2]  00 00
  can0  174   [8]  65 46 54 AA 0E 00 00 00
  can0  176   [7]  00 1E 00 26 DE E0 6E
  can0  177   [8]  FE 10 40 00 00 00 00 00
  can0  300   [2]  00 00
  can0  160   [7]  31 23 25 00 08 FF E8
  can0  180   [8]  14 82 32 53 12 00 3E 10
  can0  182   [8]  00 00 00 00 00 1E 00 C5
  can0  1A5   [7]  4F FE 00 00 00 32 24
  can0  1F9   [8]  20 20 14 82 00 00 4E 80
  can0  2DE   [8]  02 00 80 05 F0 00 0D 96
  can0  385   [7]  00 00 84 82 84 83 F0
  can0  002   [5]  66 FF 00 07 25
  can0  284   [8]  00 00 00 00 00 00 39 BF
  can0  285   [8]  00 00 00 00 00 00 39 C0
  can0  280   [8]  03 DF 80 00 00 00 9F 40
  can0  354   [8]  00 00 00 00 00 08 04 00
  can0  174   [8]  65 46 54 AA 0F 00 00 00
  can0  176   [7]  00 1E 00 26 DE E0 6F
  can0  177   [8]  FE 10 40 00 00 00 00 00
  can0  1A5   [7]  5F FE 00 00 00 32 24
  can0  160   [7]  31 23 25 00 08 FF E8
  can0  180   [8]  14 82 32 53 12 00 3F 10
  can0  182   [8]  00 00 00 00 00 1F 00 C5
  can0  1F9   [8]  20 20 14 82 00 00 4E 80
  can0  2DE   [8]  02 00 80 05 F0 00 0D 96
  can0  355   [7]  00 00 00 00 00 00 40
  can0  002   [5]  66 FF 00 07 16
  can0  215   [7]  FF F0 FF 30 FF FF 00
  can0  216   [2]  40 00
  can0  245   [8]  FF E0 00 18 3A 10 FF E2
  can0  292   [8]  80 08 0A 80 1F A0 00 02
  can0  286   [2]  00 40
  can0  174   [8]  65 46 54 AA 00 00 00 00
  can0  176   [7]  00 1E 00 26 DE E0 60
  can0  177   [8]  FE 10 40 00 00 00 00 00
  can0  300   [2]  00 00
  can0  1A5   [7]  6F FE 00 00 00 32 24
  can0  160   [7]  31 23 25 00 08 FF E8
  can0  180   [8]  14 82 32 53 12 00 30 10
  can0  182   [8]  00 00 00 00 00 10 00 C5
  can0  1F9   [8]  20 20 14 82 00 00 4E 80
  can0  3AB   [4]  00 03 00 55
  can0  2DE   [8]  02 00 80 05 F0 00 0D 96
  can0  002   [5]  66 FF 01 07 17
  can0  284   [8]  00 00 00 00 00 00 3A C0
  can0  285   [8]  00 00 00 00 00 00 3A C1
  can0  280   [8]  03 DF 80 00 00 00 A2 40
  can0  174   [8]  65 46 54 AA 01 00 00 00
  can0  176   [7]  00 1E 00 26 DE E0 61
  can0  177   [8]  FE 10 40 00 00 00 00 00
  can0  421   [3]  08 00 00
  can0  1A5   [7]  7F FE 00 00 00 32 24
  can0  160   [7]  31 23 25 00 08 FF E8
  can0  180   [8]  14 9B 32 53 12 00 31 10
  can0  182   [8]  00 00 00 00 00 11 00 C5
  can0  1F9   [8]  20 20 14 9B 00 00 4E 80
  can0  2DE   [8]  02 00 80 05 F0 00 0D 96
  can0  002   [5]  66 FF 00 07 F8
  can0  215   [7]  FF F0 FF 30 FF FF 00
  can0  216   [2]  40 00
  can0  245   [8]  FF E0 00 18 3B 10 FF E3
  can0  292   [8]  80 08 0A 80 1F A0 00 03
  can0  286   [2]  00 80
  can0  5E4   [3]  00 00 00
  can0  174   [8]  65 46 54 AA 02 00 00 00
  can0  176   [7]  00 1E 00 26 DE E0 62
  can0  177   [8]  FE 10 40 00 00 00 00 00
  can0  300   [2]  00 00
  can0  1A5   [7]  8F FE 00 00 00 32 24
  can0  160   [7]  31 23 25 00 08 FF E8
  can0  180   [8]  14 9B 32 53 12 00 32 10
  can0  182   [8]  00 00 00 00 00 12 00 C5
  can0  1F9   [8]  20 20 14 9B 00 00 4E 80
  can0  2DE   [8]  02 00 80 05 F0 00 0D 96
  can0  551   [8]  85 11 00 80 FF 02 80 FF
  can0  580   [8]  00 3C 80 00 8F 00 00 2F
  can0  6E2   [8]  00 00 78 00 00 00 00 55
  can0  002   [5]  66 FF 01 07 F9
  can0  284   [8]  00 00 00 00 00 00 3B C1
  can0  285   [8]  00 00 00 00 00 00 3B C2
  can0  280   [8]  03 E1 80 00 00 00 9D 40
  can0  354   [8]  00 00 00 00 00 10 04 00
  can0  174   [8]  65 46 54 AA 03 00 00 00
  can0  176   [7]  00 1E 00 26 DE E0 63
  can0  177   [8]  FE 10 40 00 00 00 00 00
  can0  1A5   [7]  9F FE 00 00 00 32 24
  can0  160   [7]  31 23 25 00 08 FF E8
  can0  180   [8]  14 9B 32 53 12 00 33 10
  can0  182   [8]  00 00 00 00 00 13 00 C5
  can0  1F9   [8]  20 20 14 9B 00 00 4E 80
  can0  2DE   [8]  02 00 80 05 F0 00 0D 96
  can0  355   [7]  00 00 00 00 00 00 40
  can0  002   [5]  66 FF 01 07 CA
  can0  215   [7]  FF F0 FF 30 FF FF 00
  can0  216   [2]  40 00
  can0  625   [6]  02 00 FF 1D 10 00
  can0  245   [8]  FF E0 00 18 3C 10 FF E0
  can0  292   [8]  80 08 0A 80 1F A0 00 00
  can0  286   [2]  00 C0
  can0  174   [8]  65 46 54 AA 04 00 00 00
  can0  176   [7]  00 1E 00 26 DE E0 64
  can0  177   [8]  FE 10 40 00 00 00 00 00
  can0  300   [2]  00 00
  can0  1A5   [7]  AF FE 00 00 00 32 24
  can0  160   [7]  31 23 24 00 08 FF E8
  can0  180   [8]  14 9B 32 43 12 00 34 10
  can0  182   [8]  00 00 00 00 00 14 00 C5
  can0  1F9   [8]  20 20 14 9B 00 00 4E 80
  can0  2DE   [8]  02 00 80 05 F0 00 0D 96
  can0  002   [5]  66 FF 01 07 DB
  can0  284   [8]  00 00 00 00 00 00 3C C2
  can0  285   [8]  00 00 00 00 00 00 3C C3
  can0  280   [8]  03 DE 80 00 00 00 A2 40
  can0  5C5   [8]  44 01 58 B6 00 0C 00 7F
  can0  174   [8]  65 46 54 AA 05 00 00 00
  can0  176   [7]  00 1E 00 26 DE E0 65
  can0  177   [8]  FE 10 40 00 00 00 00 00
  can0  560   [6]  AC 30 00 06 7F C0
  can0  1A5   [7]  BF FE 00 00 00 32 24
  can0  160   [7]  31 23 24 00 08 FF E8
  can0  180   [8]  14 9B 32 43 12 00 35 10
  can0  182   [8]  00 00 00 00 00 15 00 C5
  can0  1F9   [8]  20 20 14 9B 00 00 4E 80
  can0  2DE   [8]  02 00 80 05 F0 00 0D 96
  can0  3AB   [4]  00 03 00 55
  can0  60D   [8]  08 06 18 00 00 00 40 00
  can0  002   [5]  66 FF 01 07 AC
  can0  215   [7]  FF F0 FF 30 FF FF 00
  can0  216   [2]  40 00
  can0  245   [8]  FF E0 00 18 3D 10 FF E1
  can0  6F6   [3]  80 00 00
  can0  292   [8]  80 08 0A 80 1F A0 00 01
  can0  286   [2]  00 00
  can0  174   [8]  65 46 54 AA 06 00 00 00
  can0  176   [7]  00 1E 00 26 DE E0 66
  can0  177   [8]  FE 10 40 00 00 00 00 00
  can0  300   [2]  00 00
  can0  1A5   [7]  CF FE 00 00 00 32 24
  can0  160   [7]  31 23 25 00 08 FF E8
  can0  180   [8]  14 9B 32 53 12 00 36 10
  can0  182   [8]  00 00 00 00 00 16 00 C5
  can0  1F9   [8]  20 20 14 9B 00 00 4E 80
  can0  2DE   [8]  02 00 80 05 F0 00 0D 96
  can0  358   [8]  01 02 80 00 02 03 00 00
  can0  002   [5]  66 FF 00 07 AD
  can0  284   [8]  00 00 00 00 00 00 3D C3
  can0  285   [8]  00 00 00 00 00 00 3D C4
  can0  280   [8]  03 E0 80 00 00 00 9E 40
  can0  354   [8]  00 00 00 00 00 18 04 00
  can0  174   [8]  65 46 54 AA 07 00 00 00
  can0  176   [7]  00 1E 00 26 DE E0 67
  can0  177   [8]  FE 10 40 00 00 00 00 00
  can0  421   [3]  08 00 00
  can0  1A5   [7]  DF FE 00 00 00 32 24
  can0  2DE   [8]  02 00 80 05 F0 00 0D 96
  can0  160   [7]  31 23 25 00 08 FF E8
  can0  180   [8]  14 9B 32 53 12 00 37 10
  can0  182   [8]  00 00 00 00 00 17 00 C5
  can0  1F9   [8]  20 20 14 9B 00 00 4E 80
  can0  355   [7]  00 00 00 00 00 00 40
  can0  35D   [8]  C0 03 00 00 00 00 00 00
  can0  002   [5]  66 FF 00 07 9E
  can0  215   [7]  FF F0 FF 30 FF FF 00
  can0  216   [2]  40 00
  can0  245   [8]  FF E0 00 18 3E 10 FF E2
  can0  292   [8]  80 08 0A 80 1F A0 00 02
  can0  286   [2]  00 40
  can0  174   [8]  65 46 54 AA 08 00 00 00
  can0  176   [7]  00 1E 00 26 DE E0 68
  can0  177   [8]  FE 10 40 00 00 00 00 00
  can0  300   [2]  00 00
  can0  1A5   [7]  EF FE 00 00 00 32 24
  can0  2DE   [8]  02 00 80 05 F0 00 0D 96
  can0  160   [7]  31 23 24 00 08 FF E8
  can0  180   [8]  14 9B 32 43 12 00 38 10
  can0  182   [8]  00 00 00 00 00 18 00 C5
  can0  1F9   [8]  20 20 14 9B 00 00 4E 80
  can0  385   [7]  00 00 84 82 84 83 F0
  can0  002   [5]  66 FF 01 07 9F
  can0  284   [8]  00 00 00 00 00 00 3E C4
  can0  285   [8]  00 00 00 00 00 00 3E C5
  can0  280   [8]  03 DE 80 00 00 00 9D 40
  can0  174   [8]  65 46 54 AA 09 00 00 00
  can0  176   [7]  00 1E 00 26 DE E0 69
  can0  177   [8]  FE 10 40 00 00 00 00 00
  can0  1A5   [7]  FF FE 00 00 00 32 24
  can0  2DE   [8]  02 00 80 05 F0 00 0D 96
  can0  160   [7]  31 23 24 00 08 FF E8
  can0  180   [8]  14 9B 32 43 12 00 39 10
  can0  182   [8]  00 00 00 00 00 19 00 C5
  can0  1F9   [8]  20 20 14 9B 00 00 4E 80
  can0  002   [5]  66 FF 00 07 70
  can0  215   [7]  FF F0 FF 30 FF FF 00
  can0  216   [2]  40 00
  can0  245   [8]  FF E0 00 18 3F 10 FF E3
  can0  292   [8]  80 08 0A 80 2F A0 00 03
  can0  286   [2]  00 80
  can0  174   [8]  65 46 54 AA 0A 00 00 00
  can0  176   [7]  00 1E 00 26 DE E0 6A
  can0  177   [8]  FE 10 40 00 00 00 00 00
  can0  300   [2]  00 00
  can0  1A5   [7]  0F FE 00 00 00 32 24
  can0  2DE   [8]  02 00 80 05 F0 00 0D 96
  can0  160   [7]  31 23 24 00 08 FF E8
  can0  180   [8]  14 9B 32 43 12 00 3A 10
  can0  182   [8]  00 00 00 00 00 1A 00 C5
  can0  1F9   [8]  20 20 14 9B 00 00 4E 80
  can0  3AB   [4]  00 03 00 55
  can0  002   [5]  66 FF 00 07 61
  can0  284   [8]  00 00 00 00 00 00 3F C5
  can0  285   [8]  00 00 00 00 00 00 3F C6
  can0  280   [8]  03 E0 80 00 00 00 A0 40
  can0  354   [8]  00 00 00 00 00 00 04 00
  can0  174   [8]  65 46 54 AA 0B 00 00 00
  can0  176   [7]  00 1E 00 26 DE E0 6B
  can0  177   [8]  FE 10 40 00 00 00 00 00
  can0  1A5   [7]  1F FE 00 00 00 32 24
  can0  2DE   [8]  02 00 80 05 F0 00 0D 96
  can0  355   [7]  00 00 00 00 00 00 40
  can0  160   [7]  31 23 24 00 08 FF E8
  can0  180   [8]  14 9B 32 43 12 00 3B 10
  can0  182   [8]  00 00 00 00 00 1B 00 C5
  can0  1F9   [8]  20 20 14 9B 00 00 4E 80
  can0  002   [5]  66 FF 00 07 52
  can0  215   [7]  FF F0 FF 30 FF FF 00
  can0  216   [2]  40 00
  can0  245   [8]  FF E0 00 18 40 10 FF E0
  can0  292   [8]  80 08 0A 80 0F A0 00 00
  can0  286   [2]  00 C0
  can0  5E4   [3]  00 00 00
  can0  174   [8]  65 46 54 AA 0C 00 00 00
  can0  176   [7]  00 1E 00 26 DE E0 6C
  can0  177   [8]  FE 10 40 00 00 00 00 00
  can0  300   [2]  00 00
  can0  1A5   [7]  2F FE 00 00 00 32 24
  can0  2DE   [8]  02 00 80 05 F0 00 0D 96
  can0  160   [7]  31 23 24 00 08 FF E8
  can0  180   [8]  14 9B 32 43 12 00 3C 10
  can0  182   [8]  00 00 00 00 00 1C 00 C5
  can0  1F9   [8]  20 20 14 9B 00 00 4E 80
  can0  002   [5]  66 FF 00 07 43
  can0  551   [8]  85 11 00 80 FF 02 80 FF
  can0  580   [8]  00 3C 80 02 8F 00 00 28
  can0  6E2   [8]  00 00 79 00 00 00 00 55
  can0  284   [8]  00 00 00 00 00 00 40 C6
  can0  285   [8]  00 00 00 00 00 00 40 C7
  can0  280   [8]  03 E0 80 00 00 00 9E 40
  can0  174   [8]  65 46 54 AA 0D 00 00 00
  can0  176   [7]  00 1E 00 26 DE E0 6D
  can0  177   [8]  FE 10 40 00 00 00 00 00
  can0  421   [3]  08 00 00
  can0  1A5   [7]  3F FE 00 00 00 32 24
  can0  2DE   [8]  02 00 80 05 F0 00 0D 96
  can0  160   [7]  31 23 24 00 08 FF E8
  can0  180   [8]  14 9B 32 43 12 00 3D 10
  can0  182   [8]  00 00 00 00 00 1D 00 C5
  can0  002   [5]  66 FF 00 07 34
  can0  1F9   [8]  20 20 14 9B 00 00 4E 80
  can0  215   [7]  FF F0 FF 30 FF FF 00
  can0  216   [2]  40 00
  can0  625   [6]  02 00 FF 1D 10 00
  can0  245   [8]  FF E0 00 18 41 10 FF E1
  can0  292   [8]  80 08 0A 80 1F A0 00 01
  can0  286   [2]  00 00
  can0  174   [8]  65 46 54 AA 0E 00 00 00
  can0  176   [7]  00 1E 00 26 DE E0 6E
  can0  177   [8]  FE 10 40 00 00 00 00 00
  can0  300   [2]  00 00
  can0  1A5   [7]  4F FE 00 00 00 32 24
  can0  2DE   [8]  02 00 80 05 F0 00 0D 96
  can0  160   [7]  31 23 24 00 08 FF E8
  can0  180   [8]  14 9B 32 43 12 00 3E 10
  can0  182   [8]  00 00 00 00 00 1E 00 C5
  can0  002   [5]  66 FF 00 07 25
  can0  1F9   [8]  20 20 14 9B 00 00 4E 80
  can0  284   [8]  00 00 00 00 00 00 41 C7
  can0  285   [8]  00 00 00 00 00 00 41 C8
  can0  280   [8]  03 DF 80 00 00 00 A0 40
  can0  354   [8]  00 00 00 00 00 08 04 00
  can0  5C5   [8]  44 01 58 B6 00 0C 00 7F
  can0  174   [8]  65 46 54 AA 0F 00 00 00
  can0  176   [7]  00 1E 00 26 DE E0 6F
  can0  177   [8]  FE 10 40 00 00 00 00 00
  can0  560   [6]  AC 31 00 06 7F C0
  can0  1A5   [7]  5F FE 00 00 00 32 24
  can0  2DE   [8]  02 00 80 05 F0 00 0D 96
  can0  355   [7]  00 00 00 00 00 00 40
  can0  60D   [8]  08 06 18 00 00 00 40 00
  can0  160   [7]  31 23 24 00 08 FF E8
  can0  180   [8]  14 B4 32 43 12 00 3F 10
  can0  002   [5]  66 FF 00 07 16
  can0  182   [8]  00 00 00 00 00 1F 00 C5
  can0  1F9   [8]  20 20 14 B4 00 00 4E 80
  can0  215   [7]  FF F0 FF 30 FF FF 00
  can0  3AB   [4]  00 03 00 55
  can0  216   [2]  40 00
  can0  245   [8]  FF E0 00 18 42 10 FF E2
  can0  6F6   [3]  7E 00 00
  can0  292   [8]  80 08 0A 80 1F A0 00 02
  can0  286   [2]  00 40
  can0  174   [8]  65 46 54 AA 00 00 00 00
  can0  176   [7]  00 1E 00 26 DE E0 60
  can0  177   [8]  FE 10 40 00 00 00 00 00
  can0  300   [2]  00 00
  can0  1A5   [7]  6F FE 00 00 00 32 24
  can0  2DE   [8]  02 00 80 05 F0 00 0D 96
  can0  358   [8]  01 02 80 00 02 03 00 00
  can0  002   [5]  66 FF 00 07 07
  can0  160   [7]  31 23 24 00 08 FF E8
  can0  180   [8]  14 B4 32 43 12 00 30 10
  can0  182   [8]  00 00 00 00 00 10 00 C5
  can0  1F9   [8]  20 20 14 B4 00 00 4E 80
  can0  284   [8]  00 00 00 00 00 00 42 C8
  can0  285   [8]  00 00 00 00 00 00 42 C9
  can0  280   [8]  03 E1 80 00 00 00 9F 40
  can0  174   [8]  65 46 54 AA 01 00 00 00
  can0  176   [7]  00 1E 00 26 DE E0 61
  can0  177   [8]  FE 11 40 00 00 00 00 00
  can0  1A5   [7]  7F FE 00 00 00 32 24
  can0  2DE   [8]  02 00 80 05 F0 00 0D 96
  can0  35D   [8]  C0 03 00 00 00 00 00 00
  can0  002   [5]  66 FF 00 07 F8
  can0  160   [7]  31 23 24 00 08 FF E8
  can0  180   [8]  14 B4 32 43 12 00 31 10
  can0  182   [8]  00 00 00 00 00 11 00 C5
  can0  1F9   [8]  20 20 14 B4 00 00 4E 80
  can0  215   [7]  FF F0 FF 30 FF FF 00
  can0  216   [2]  40 00
  can0  245   [8]  FF E0 00 18 43 10 FF E3
  can0  292   [8]  80 08 0A 80 2F A0 00 03
  can0  286   [2]  00 80
  can0  174   [8]  65 46 54 AA 02 00 00 00
  can0  176   [7]  00 1E 00 26 DE E0 62
  can0  177   [8]  FE 11 40 00 00 00 00 00
  can0  300   [2]  00 00
  can0  1A5   [7]  8F FE 00 00 00 32 24
  can0  2DE   [8]  02 00 80 05 F0 00 0D 96
  can0  385   [7]  00 00 84 82 84 83 F0
  can0  002   [5]  66 FF 00 07 E9
  can0  160   [7]  31 23 24 00 08 FF E8
  can0  180   [8]  14 B4 32 43 12 00 32 10
  can0  182   [8]  00 00 00 00 00 12 00 C5
  can0  1F9   [8]  20 20 14 B4 00 00 4E 80
  can0  284   [8]  00 00 00 00 00 00 43 C9
  can0  285   [8]  00 00 00 00 00 00 43 CA
  can0  280   [8]  03 E1 80 00 00 00 A2 40
  can0  354   [8]  00 00 00 00 00 10 04 00
  can0  174   [8]  65 46 54 AA 03 00 00 00
  can0  176   [7]  00 1E 00 26 DE E0 63
  can0  177   [8]  FE 11 40 00 00 00 00 00
  can0  421   [3]  08 00 00
  can0  1A5   [7]  9F FE 00 00 00 32 24
  can0  2DE   [8]  02 00 80 05 F0 00 0D 96
  can0  355   [7]  00 00 00 00 00 00 40
  can0  002   [5]  66 FF 00 07 DA
  can0  215   [7]  FF F0 FF 30 FF FF 00
  can0  160   [7]  31 23 24 00 08 FF E8
  can0  180   [8]  14 B4 32 43 12 00 33 10
  can0  182   [8]  00 00 00 00 00 13 00 C5
  can0  1F9   [8]  20 20 14 B4 00 00 4E 80
  can0  216   [2]  40 00
  can0  245   [8]  FF E0 00 18 44 10 FF E0
  can0  292   [8]  80 08 0A 80 1F A0 00 00
  can0  286   [2]  00 C0
  can0  174   [8]  65 46 54 AA 04 00 00 00
  can0  176   [7]  00 1E 00 26 DE E0 64
  can0  177   [8]  FE 11 40 00 00 00 00 00
  can0  300   [2]  00 00
  can0  1A5   [7]  AF FE 00 00 00 32 24
  can0  2DE   [8]  02 00 80 05 F0 00 0D 96
  can0  002   [5]  66 FF 00 07 CB
  can0  160   [7]  31 23 24 00 08 FF E8
  can0  180   [8]  14 B4 32 43 12 00 34 10
  can0  182   [8]  00 00 00 00 00 14 00 C5
  can0  1F9   [8]  20 20 14 B4 00 00 4E 80
  can0  3AB   [4]  00 03 00 55
  can0  284   [8]  00 00 00 00 00 00 44 CA
  can0  285   [8]  00 00 00 00 00 00 44 CB
  can0  280   [8]  03 E0 80 00 00 00 9D 40
  can0  174   [8]  65 46 54 AA 05 00 00 00
  can0  176   [7]  00 1E 00 26 DE E0 65
  can0  177   [8]  FE 11 40 00 00 00 00 00
  can0  1A5   [7]  BF FE 00 00 00 32 24
  can0  2DE   [8]  02 00 80 05 F0 00 0D 96
  can0  002   [5]  66 FF 00 07 BC
  can0  215   [7]  FF F0 FF 30 FF FF 00
  can0  216   [2]  40 00
  can0  160   [7]  31 23 24 00 08 FF E8
  can0  180   [8]  14 B4 32 43 12 00 35 10
  can0  182   [8]  00 00 00 00 00 15 00 C5
  can0  1F9   [8]  20 20 14 B4 00 00 4E 80
  can0  245   [8]  FF E0 00 18 45 10 FF E1
  can0  292   [8]  80 08 0A 80 1F A0 00 01
  can0  286   [2]  00 00
  can0  5E4   [3]  00 00 00
  can0  174   [8]  65 46 54 AA 06 00 00 00
  can0  176   [7]  00 1E 00 26 DE E0 66
  can0  177   [8]  FE 11 40 00 00 00 00 00
  can0  300   [2]  00 00
  can0  1A5   [7]  CF FE 00 00 00 32 24
  can0  2DE   [8]  02 00 80 05 F0 00 0D 96
  can0  002   [5]  66 FF 00 07 AD
  can0  160   [7]  31 23 24 00 08 FF E8
  can0  180   [8]  14 B4 32 43 12 00 36 10
  can0  182   [8]  00 00 00 00 00 16 00 C5
  can0  1F9   [8]  20 20 14 B4 00 00 4E 80
  can0  284   [8]  00 00 00 00 00 00 45 CB
  can0  280   [8]  03 E1 80 00 00 00 A0 40
  can0  285   [8]  00 00 00 00 00 00 45 CC
  can0  354   [8]  00 00 00 00 00 18 04 00
  can0  551   [8]  85 12 00 80 FF 02 80 FF
  can0  580   [8]  00 3C 80 04 8F 00 00 2A
  can0  174   [8]  65 46 54 AA 07 00 00 00
  can0  6E2   [8]  00 00 7A 00 00 00 00 55
  can0  176   [7]  00 1E 00 26 DE E0 67
  can0  177   [8]  FE 11 40 00 00 00 00 00
  can0  1A5   [7]  DF FE 00 00 00 32 24
  can0  2DE   [8]  02 00 80 05 F0 00 0D 96
  can0  355   [7]  00 00 00 00 00 00 40
  can0  002   [5]  66 FF 00 07 9E
  can0  215   [7]  FF F0 FF 30 FF FF 00
  can0  216   [2]  40 00
  can0  625   [6]  02 00 FF 1D 10 00
  can0  160   [7]  31 23 24 00 08 FF E8
  can0  180   [8]  14 B4 32 43 12 00 37 10
  can0  182   [8]  00 00 00 00 00 17 00 C5
  can0  1F9   [8]  20 20 14 B4 00 00 4E 80
  can0  245   [8]  FF E0 00 18 46 10 FF E2
  can0  292   [8]  80 08 0A 80 0F A0 00 02
  can0  286   [2]  00 40
  can0  174   [8]  65 46 54 AA 08 00 00 00
  can0  176   [7]  00 1E 00 26 DE E0 68
  can0  177   [8]  FE 11 40 00 00 00 00 00
  can0  300   [2]  00 00
  can0  1A5   [7]  EF FE 00 00 00 32 24
  can0  2DE   [8]  02 00 80 05 F0 00 0D 96
  can0  002   [5]  66 FF 00 07 8F
  can0  160   [7]  31 23 24 00 08 FF E8
  can0  180   [8]  14 B4 32 43 12 00 38 10
  can0  182   [8]  00 00 00 00 00 18 00 C5
  can0  1F9   [8]  20 20 14 B4 00 00 4E 80
  can0  280   [8]  03 E0 80 00 00 00 A0 40
  can0  284   [8]  00 00 00 00 00 00 46 CC
  can0  285   [8]  00 00 00 00 00 00 46 CD
  can0  5C5   [8]  44 01 58 B6 00 0C 00 7F
  can0  174   [8]  65 46 54 AA 09 00 00 00
  can0  176   [7]  00 1E 00 26 DE E0 69
  can0  177   [8]  FE 11 40 00 00 00 00 00
  can0  421   [3]  08 00 00
  can0  560   [6]  AC 32 00 06 7F C0
  can0  1A5   [7]  FF FE 00 00 00 32 24
  can0  2DE   [8]  02 00 80 05 F0 00 0D 96
  can0  60D   [8]  08 06 18 00 00 00 40 00
  can0  002   [5]  66 FF 00 07 70
  can0  215   [7]  FF F0 FF 30 FF FF 00
  can0  216   [2]  40 00
  can0  245   [8]  FF E0 00 18 47 10 FF E3
  can0  160   [7]  31 23 24 00 08 FF E8
  can0  180   [8]  14 B4 32 43 12 00 39 10
  can0  182   [8]  00 00 00 00 00 19 00 C5
  can0  1F9   [8]  20 20 14 B4 00 00 4E 80
  can0  3AB   [4]  00 03 00 55
  can0  6F6   [3]  7D 00 00
  can0  174   [8]  65 46 54 AA 0A 00 00 00
  can0  292   [8]  80 08 0A 80 1F A0 00 03
  can0  176   [7]  00 1E 00 26 DE E0 6A
  can0  286   [2]  00 80
  can0  177   [8]  FE 11 40 00 00 00 00 00
  can0  300   [2]  00 00
  can0  1A5   [7]  0F FE 00 00 00 32 24
  can0  2DE   [8]  02 00 80 05 F0 00 0D 96
  can0  358   [8]  01 02 80 00 02 03 00 00
  can0  002   [5]  66 FF 01 07 71
  can0  284   [8]  00 00 00 00 00 00 47 CD
  can0  160   [7]  31 23 24 00 08 FF E8
  can0  180   [8]  14 B4 32 43 12 00 3A 10
  can0  182   [8]  00 00 00 00 00 1A 00 C5
  can0  1F9   [8]  20 20 14 B4 00 00 4E 80
  can0  280   [8]  03 E0 80 00 00 00 9E 40
  can0  285   [8]  00 00 00 00 00 00 47 CE
  can0  174   [8]  65 46 54 AA 0B 00 00 00
  can0  354   [8]  00 00 00 00 00 00 04 00
  can0  176   [7]  00 1E 00 26 DE E0 6B
  can0  177   [8]  FE 11 40 00 00 00 00 00
  can0  1A5   [7]  1F FE 00 00 00 32 24
  can0  2DE   [8]  02 00 80 05 F0 00 0D 96
  can0  355   [7]  00 00 00 00 00 00 40
  can0  35D   [8]  C0 03 00 00 00 00 00 00
  can0  002   [5]  66 FF 01 07 42
  can0  215   [7]  FF F0 FF 30 FF FF 00
  can0  216   [2]  40 00
  can0  245   [8]  FF E0 00 18 48 10 FF E0
  can0  292   [8]  80 08 0A 80 1F A0 00 00
  can0  160   [7]  31 23 24 00 08 FF E8
  can0  180   [8]  14 B4 32 43 12 00 3B 10
  can0  182   [8]  00 00 00 00 00 1B 00 C5
  can0  1F9   [8]  20 20 14 B4 00 00 4E 80
  can0  286   [2]  00 C0
  can0  174   [8]  65 46 54 AA 0C 00 00 00
  can0  176   [7]  00 1E 00 26 DE E0 6C
  can0  177   [8]  FE 11 40 00 00 00 00 00
  can0  300   [2]  00 00
  can0  1A5   [7]  2F FE 00 00 00 32 24
  can0  2DE   [8]  02 00 80 05 F0 00 0D 96
  can0  385   [7]  00 00 84 82 84 83 F0
  can0  002   [5]  66 FF 00 07 43
  can0  284   [8]  00 00 00 00 00 00 48 CE
  can0  285   [8]  00 00 00 00 00 00 48 CF
  can0  280   [8]  03 E1 80 00 00 00 9F 40
  can0  160   [7]  31 23 24 00 08 FF E8
  can0  180   [8]  14 B4 32 43 12 00 3C 10
  can0  182   [8]  00 00 00 00 00 1C 00 C5
  can0  1F9   [8]  20 20 14 B4 00 00 4E 80
  can0  174   [8]  65 46 54 AA 0D 00 00 00
  can0  176   [7]  00 1E 00 26 DE E0 6D
  can0  177   [8]  FE 11 40 00 00 00 00 00
  can0  1A5   [7]  3F FE 00 00 00 32 24
  can0  2DE   [8]  02 00 80 05 F0 00 0D 96
  can0  002   [5]  66 FF 00 07 34
  can0  215   [7]  FF F0 FF 30 FF FF 00
  can0  216   [2]  40 00
  can0  245   [8]  FF E0 00 18 49 10 FF E1
  can0  292   [8]  80 08 0A 80 1F A0 00 01
  can0  286   [2]  00 00
  can0  160   [7]  31 23 24 00 08 FF E8
  can0  180   [8]  14 B4 32 43 12 00 3D 10
  can0  182   [8]  00 00 00 00 00 1D 00 C5
  can0  174   [8]  65 46 54 AA 0E 00 00 00
  can0  1F9   [8]  20 20 14 B4 00 00 4E 80
  can0  176   [7]  00 1E 00 26 DE E0 6E
  can0  300   [2]  00 00
  can0  177   [8]  FE 11 40 00 00 00 00 00
  can0  1A5   [7]  4F FE 00 00 00 32 24
  can0  2DE   [8]  02 00 80 05 F0 00 0D 96
  can0  002   [5]  66 FF 00 07 25
  can0  284   [8]  00 00 00 00 00 00 49 CF
  can0  285   [8]  00 00 00 00 00 00 49 D0
  can0  280   [8]  03 E1 80 00 00 00 9F 40
  can0  354   [8]  00 00 00 00 00 08 04 00
  can0  160   [7]  31 23 24 00 08 FF E8
  can0  180   [8]  14 B4 32 43 12 00 3E 10
  can0  174   [8]  65 46 54 AA 0F 00 00 00
  can0  182   [8]  00 00 00 00 00 1E 00 C5
  can0  176   [7]  00 1E 00 26 DE E0 6F
  can0  1F9   [8]  20 20 14 B4 00 00 4E 80
  can0  177   [8]  FE 11 40 00 00 00 00 00
  can0  3AB   [4]  00 03 00 55
  can0  1A5   [7]  5F FE 00 00 00 32 24
  can0  421   [3]  08 00 00
  can0  2DE   [8]  02 00 80 05 F0 00 0D 96
  can0  355   [7]  00 00 00 00 00 00 40
  can0  002   [5]  66 FF 01 07 06
  can0  215   [7]  FF F0 FF 30 FF FF 00
  can0  216   [2]  40 00
  can0  245   [8]  FF E0 00 18 4A 10 FF E2
  can0  292   [8]  80 08 0A 80 0F A0 00 02
  can0  286   [2]  00 40
  can0  5E4   [3]  00 00 00
  can0  160   [7]  31 23 24 00 08 FF E8
  can0  174   [8]  65 46 54 AA 00 00 00 00
  can0  180   [8]  14 B4 32 43 12 00 3F 10
  can0  176   [7]  00 1E 00 26 DE E0 60
  can0  182   [8]  00 00 00 00 00 1F 00 C5
  can0  177   [8]  FE 11 40 00 00 00 00 00
  can0  1F9   [8]  20 20 14 B4 00 00 4E 80
  can0  1A5   [7]  6F FE 00 00 00 32 24
  can0  300   [2]  00 00
  can0  2DE   [8]  02 00 80 05 F0 00 0D 96
  can0  002   [5]  66 FF 00 07 07
  can0  284   [8]  00 00 00 00 00 00 4A D0
  can0  285   [8]  00 00 00 00 00 00 4A D1
  can0  280   [8]  03 E2 80 00 00 00 A1 40
  can0  174   [8]  65 46 54 AA 01 00 00 00
  can0  160   [7]  31 23 24 00 08 FF E8
  can0  176   [7]  00 1E 00 26 DE E0 61
  can0  180   [8]  14 9B 32 43 12 00 30 10
  can0  177   [8]  FE 11 40 00 00 00 00 00
  can0  182   [8]  00 00 00 00 00 10 00 C5
  can0  1F9   [8]  20 20 14 9B 00 00 4E 80
  can0  1A5   [7]  7F FE 00 00 00 32 24
  can0  551   [8]  84 12 00 80 FF 02 80 FF
  can0  580   [8]  00 3C 80 06 8F 00 00 31
  can0  6E2   [8]  00 00 7B 00 00 00 00 55
  can0  2DE   [8]  02 00 80 05 F0 00 0D 96
  can0  002   [5]  66 FF 00 07 F8
  can0  215   [7]  FF F0 FF 30 FF FF 00
  can0  216   [2]  40 00
  can0  625   [6]  02 00 FF 1D 10 00
  can0  245   [8]  FF E0 00 18 4B 10 FF E3
  can0  292   [8]  80 08 0A 80 0F A0 00 03
  can0  286   [2]  00 80
  can0  174   [8]  65 46 54 AA 02 00 00 00
  can0  176   [7]  00 1E 00 26 DE E0 62
  can0  160   [7]  31 23 24 00 08 FF E8
  can0  177   [8]  FE 11 40 00 00 00 00 00
  can0  180   [8]  14 9B 32 43 12 00 31 10
  can0  182   [8]  00 00 00 00 00 11 00 C5
  can0  1F9   [8]  20 20 14 9B 00 00 4E 80
  can0  1A5   [7]  8F FE 00 00 00 32 24
  can0  300   [2]  00 00
  can0  2DE   [8]  02 00 80 05 F0 00 0D 96
  can0  002   [5]  66 FF 00 07 E9
  can0  284   [8]  00 00 00 00 00 00 4B D1
  can0  285   [8]  00 00 00 00 00 00 4B D2
  can0  280   [8]  03 E0 80 00 00 00 9E 40
  can0  354   [8]  00 00 00 00 00 10 04 00
  can0  5C5   [8]  44 01 58 B6 00 0C 00 7F
  can0  174   [8]  65 46 54 AA 03 00 00 00
  can0  176   [7]  00 1E 00 26 DE E0 63
  can0  177   [8]  FE 10 40 00 00 00 00 00
  can0  560   [6]  AC 10 32 06 7F C0
  can0  160   [7]  31 23 24 00 08 FF E8
  can0  180   [8]  14 9B 32 43 12 00 32 10
  can0  182   [8]  00 00 00 00 00 12 00 C5
  can0  1A5   [7]  9F FE 00 00 00 32 24
  can0  1F9   [8]  20 20 14 9B 00 00 4E 80
  can0  2DE   [8]  02 00 80 05 F0 00 0D 96
  can0  355   [7]  00 00 00 00 00 00 40
  can0  60D   [8]  08 06 18 00 00 00 40 00
  can0  002   [5]  66 FF 00 07 DA
  can0  215   [7]  FF F0 FF 30 FF FF 00
  can0  216   [2]  40 00
  can0  245   [8]  FF E0 00 18 4C 10 FF E0
  can0  6F6   [3]  7E 00 00
  can0  292   [8]  80 08 0A 80 0F A0 00 00
  can0  286   [2]  00 C0
  can0  174   [8]  65 46 54 AA 04 00 00 00
  can0  176   [7]  00 1E 00 26 DE E0 64
  can0  177   [8]  FE 10 40 00 00 00 00 00
  can0  300   [2]  00 00
  can0  160   [7]  31 23 24 00 08 FF E8
  can0  180   [8]  14 9B 32 43 12 00 33 10
  can0  182   [8]  00 00 00 00 00 13 00 C5
  can0  1A5   [7]  AF FE 00 00 00 32 24
  can0  1F9   [8]  20 20 14 9B 00 00 4E 80
  can0  3AB   [4]  00 03 00 55
  can0  2DE   [8]  02 00 80 05 F0 00 0D 96
  can0  358   [8]  01 02 80 00 02 03 00 00
  can0  002   [5]  66 FF 00 07 CB
  can0  284   [8]  00 00 00 00 00 00 4C D2
  can0  285   [8]  00 00 00 00 00 00 4C D3
  can0  280   [8]  03 DF 80 00 00 00 A1 40
  can0  174   [8]  65 46 54 AA 05 00 00 00
  can0  176   [7]  00 1E 00 26 DE E0 65
  can0  177   [8]  FE 10 40 00 00 00 00 00
  can0  421   [3]  08 00 00
  can0  160   [7]  31 23 24 00 08 FF E8
  can0  180   [8]  14 9B 32 43 12 00 34 10
  can0  182   [8]  00 00 00 00 00 14 00 C5
  can0  1A5   [7]  BF FE 00 00 00 32 24
  can0  1F9   [8]  20 20 14 9B 00 00 4E 80
  can0  2DE   [8]  02 00 80 05 F0 00 0D 96
  can0  35D   [8]  C0 03 00 00 00 00 00 00
  can0  002   [5]  66 FF 00 07 BC
  can0  215   [7]  FF F0 FF 30 FF FF 00
  can0  216   [2]  40 00
  can0  245   [8]  FF E0 00 18 4D 10 FF E1
  can0  292   [8]  80 08 0A 80 0F A0 00 01
  can0  286   [2]  00 00
  can0  174   [8]  65 46 54 AA 06 00 00 00
  can0  176   [7]  00 1E 00 26 DE E0 66
  can0  177   [8]  FE 10 40 00 00 00 00 00
  can0  300   [2]  00 00
  can0  1A5   [7]  CF FE 00 00 00 32 24
  can0  160   [7]  31 23 24 00 08 FF E8
  can0  180   [8]  14 9B 32 43 12 00 35 10
  can0  182   [8]  00 00 00 00 00 15 00 C5
  can0  1F9   [8]  20 20 14 9B 00 00 4E 80
  can0  2DE   [8]  02 00 80 05 F0 00 0D 96
  can0  385   [7]  00 00 84 82 84 83 F0
  can0  002   [5]  66 FF 00 07 AD
  can0  284   [8]  00 00 00 00 00 00 4D D3
  can0  285   [8]  00 00 00 00 00 00 4D D4
  can0  280   [8]  03 E0 80 00 00 00 9E 40
  can0  354   [8]  00 00 00 00 00 18 04 00
  can0  174   [8]  65 46 54 AA 07 00 00 00
  can0  176   [7]  00 1E 00 26 DE E0 67
  can0  177   [8]  FE 10 40 00 00 00 00 00
  can0  1A5   [7]  DF FE 00 00 00 32 24
  can0  160   [7]  31 23 24 00 08 FF E8
  can0  180   [8]  14 9B 32 43 12 00 36 10
  can0  182   [8]  00 00 00 00 00 16 00 C5
  can0  1F9   [8]  20 20 14 9B 00 00 4E 80
  can0  2DE   [8]  02 00 80 05 F0 00 0D 96
  can0  355   [7]  00 00 00 00 00 00 40
  can0  002   [5]  66 FF 00 07 9E
  can0  215   [7]  FF F0 FF 30 FF FF 00
  can0  216   [2]  40 00
  can0  245   [8]  FF E0 00 18 4E 10 FF E2
  can0  292   [8]  80 08 0A 80 0F A0 00 02
  can0  286   [2]  00 40
  can0  174   [8]  65 46 54 AA 08 00 00 00
  can0  176   [7]  00 1E 00 26 DE E0 68
  can0  177   [8]  FE 10 40 00 00 00 00 00
  can0  300   [2]  00 00
  can0  1A5   [7]  EF FE 00 00 00 32 24
  can0  160   [7]  31 23 24 00 08 FF E8
  can0  180   [8]  14 9B 32 43 12 00 37 10
  can0  182   [8]  00 00 00 00 00 17 00 C5
  can0  1F9   [8]  20 20 14 9B 00 00 4E 80
  can0  2DE   [8]  02 00 80 05 F0 00 0D 96
  can0  002   [5]  66 FF 00 07 8F
  can0  284   [8]  00 00 00 00 00 00 4E D4
  can0  285   [8]  00 00 00 00 00 00 4E D5
  can0  280   [8]  03 E1 80 00 00 00 A0 40
  can0  174   [8]  65 46 54 AA 09 00 00 00
  can0  176   [7]  00 1E 00 26 DE E0 69
  can0  177   [8]  FE 10 40 00 00 00 00 00
  can0  1A5   [7]  FF FE 00 00 00 32 24
  can0  160   [7]  31 23 24 00 08 FF E8
  can0  180   [8]  14 9B 32 43 12 00 38 10
  can0  182   [8]  00 00 00 00 00 18 00 C5
  can0  1F9   [8]  20 20 14 9B 00 00 4E 80
  can0  3AB   [4]  00 03 00 55
  can0  2DE   [8]  02 00 80 05 F0 00 0D 96
  can0  002   [5]  66 FF 00 07 70
  can0  215   [7]  FF F0 FF 30 FF FF 00
  can0  216   [2]  40 00
  can0  245   [8]  FF E0 00 18 4F 10 FF E3
  can0  292   [8]  80 08 0A 80 0F A0 00 03
  can0  286   [2]  00 80
  can0  5E4   [3]  00 00 00
  can0  174   [8]  65 46 54 AA 0A 00 00 00
  can0  176   [7]  00 1E 00 26 DE E0 6A
  can0  177   [8]  FE 10 40 00 00 00 00 00
  can0  300   [2]  00 00
  can0  1A5   [7]  0F FE 00 00 00 32 24
  can0  160   [7]  31 23 24 00 08 FF E8
  can0  180   [8]  14 9B 32 43 12 00 39 10
  can0  182   [8]  00 00 00 00 00 19 00 C5
  can0  1F9   [8]  20 20 14 9B 00 00 4E 80
  can0  2DE   [8]  02 00 80 05 F0 00 0D 96
  can0  002   [5]  66 FF 00 07 61
  can0  284   [8]  00 00 00 00 00 00 4F D5
  can0  285   [8]  00 00 00 00 00 00 4F D6
  can0  280   [8]  03 DF 80 00 00 00 9F 40
  can0  354   [8]  00 00 00 00 00 00 04 00
  can0  174   [8]  65 46 54 AA 0B 00 00 00
  can0  176   [7]  00 1E 00 26 DE E0 6B
  can0  177   [8]  FE 10 40 00 00 00 00 00
  can0  421   [3]  08 00 00
  can0  1A5   [7]  1F FE 00 00 00 32 24
  can0  160   [7]  31 23 24 00 08 FF E8
  can0  180   [8]  14 9B 32 43 12 00 3A 10
  can0  182   [8]  00 00 00 00 00 1A 00 C5
  can0  1F9   [8]  20 20 14 9B 00 00 4E 80
  can0  551   [8]  84 12 00 80 FF 02 80 FF
  can0  580   [8]  00 3C 80 00 8F 00 00 30
  can0  2DE   [8]  02 00 80 05 F0 00 0D 96
  can0  355   [7]  00 00 00 00 00 00 40
  can0  6E2   [8]  00 00 78 00 00 00 00 55
  can0  002   [5]  66 FF 00 07 52
  can0  215   [7]  FF F0 FF 30 FF FF 00
  can0  216   [2]  40 00
  can0  625   [6]  02 00 FF 1D 10 00
  can0  245   [8]  FF E0 00 18 50 10 FF E0
  can0  292   [8]  80 08 0A 80 0F A0 00 00
  can0  286   [2]  00 C0
  can0  174   [8]  65 46 54 AA 0C 00 00 00
  can0  176   [7]  00 1E 00 26 DE E0 6C
  can0  177   [8]  FE 10 40 00 00 00 00 00
  can0  300   [2]  00 00
  can0  1A5   [7]  2F FE 00 00 00 32 24
  can0  160   [7]  31 23 24 00 08 FF E8
  can0  180   [8]  14 9B 32 43 12 00 3B 10
  can0  182   [8]  00 00 00 00 00 1B 00 C5
  can0  1F9   [8]  20 20 14 9B 00 00 4E 80
  can0  2DE   [8]  02 00 80 05 F0 00 0D 96
  can0  002   [5]  66 FF 00 07 43
  can0  284   [8]  00 00 00 00 00 00 50 D6
  can0  285   [8]  00 00 00 00 00 00 50 D7
  can0  280   [8]  03 E1 80 00 00 00 9A 40
  can0  5C5   [8]  44 01 58 B6 00 0C 00 7F
  can0  174   [8]  65 46 54 AA 0D 00 00 00
  can0  176   [7]  00 1E 00 26 DE E0 6D
  can0  177   [8]  FE 10 40 00 00 00 00 00
  can0  560   [6]  AC 11 37 06 7F C0
  can0  1A5   [7]  3F FE 00 00 00 32 24
  can0  160   [7]  31 23 24 00 08 FF E8
  can0  180   [8]  14 9B 32 43 12 00 3C 10
  can0  182   [8]  00 00 00 00 00 1C 00 C5
  can0  1F9   [8]  20 20 14 9B 00 00 4E 80
  can0  2DE   [8]  02 00 80 05 F0 00 0D 96
  can0  60D   [8]  08 06 18 00 00 00 40 00
  can0  002   [5]  66 FF 01 07 24
  can0  215   [7]  FF F0 FF 30 FF FF 00
  can0  216   [2]  40 00
  can0  245   [8]  FF E0 00 18 51 10 FF E1
  can0  6F6   [3]  7F 00 00
  can0  292   [8]  80 08 0A 80 1F A0 00 01
  can0  286   [2]  00 00
  can0  174   [8]  65 46 54 AA 0E 00 00 00
  can0  176   [7]  00 1E 00 26 DE E0 6E
  can0  177   [8]  FE 10 40 00 00 00 00 00
  can0  300   [2]  00 00
  can0  1A5   [7]  4F FE 00 00 00 32 24
  can0  160   [7]  31 23 24 00 08 FF E8
  can0  180   [8]  14 9B 32 43 12 00 3D 10
  can0  182   [8]  00 00 00 00 00 1D 00 C5
  can0  1F9   [8]  20 20 14 9B 00 00 4E 80
  can0  2DE   [8]  02 00 80 05 F0 00 0D 96
  can0  358   [8]  01 02 80 00 02 03 00 00
  can0  3AB   [4]  00 03 00 55
  can0  002   [5]  66 FF 00 07 25
  can0  284   [8]  00 00 00 00 00 00 51 D7
  can0  285   [8]  00 00 00 00 00 00 51 D8
  can0  280   [8]  03 E1 80 00 00 00 A0 40
  can0  354   [8]  00 00 00 00 00 08 04 00
  can0  174   [8]  65 46 54 AA 0F 00 00 00
  can0  176   [7]  00 1E 00 26 DE E0 6F
  can0  177   [8]  FE 10 40 00 00 00 00 00
  can0  1A5   [7]  5F FE 00 00 00 32 24
  can0  160   [7]  31 23 24 00 08 FF E8
  can0  180   [8]  14 9B 32 43 12 00 3E 10
  can0  182   [8]  00 00 00 00 00 1E 00 C5
  can0  1F9   [8]  20 20 14 9B 00 00 4E 80
  can0  2DE   [8]  02 00 80 05 F0 00 0D 96
  can0  355   [7]  00 00 00 00 00 00 40
  can0  35D   [8]  C0 03 00 00 00 00 00 00
  can0  002   [5]  66 FF 00 07 16
  can0  215   [7]  FF F0 FF 30 FF FF 00
  can0  216   [2]  40 00
  can0  245   [8]  FF E0 00 18 52 10 FF E2
  can0  292   [8]  80 08 0A 80 1F A0 00 02
  can0  286   [2]  00 40
  can0  174   [8]  65 46 54 AA 00 00 00 00
  can0  176   [7]  00 1E 00 26 DE E0 60
  can0  177   [8]  FE 10 40 00 00 00 00 00
  can0  300   [2]  00 00
  can0  1A5   [7]  6F FE 00 00 00 32 24
  can0  160   [7]  31 23 24 00 08 FF E8
  can0  180   [8]  14 9B 32 43 12 00 3F 10
  can0  182   [8]  00 00 00 00 00 1F 00 C5
  can0  1F9   [8]  20 20 14 9B 00 00 4E 80
  can0  2DE   [8]  02 00 80 05 F0 00 0D 96
  can0  385   [7]  00 00 84 82 84 83 F0
  can0  002   [5]  66 FF 01 07 17
  can0  284   [8]  00 00 00 00 00 00 52 D8
  can0  285   [8]  00 00 00 00 00 00 52 D9
  can0  280   [8]  03 E0 80 00 00 00 9E 40
  can0  174   [8]  65 46 54 AA 01 00 00 00
  can0  176   [7]  00 1E 00 26 DE E0 61
  can0  177   [8]  FE 10 40 00 00 00 00 00
  can0  421   [3]  08 00 00
  can0  1A5   [7]  7F FE 00 00 00 32 24
  can0  160   [7]  31 23 24 00 08 FF E8
  can0  180   [8]  14 9B 32 43 12 00 30 10
  can0  182   [8]  00 00 00 00 00 10 00 C5
  can0  1F9   [8]  20 20 14 9B 00 00 4E 80
  can0  2DE   [8]  02 00 80 05 F0 00 0D 96
  can0  002   [5]  66 FF 00 07 F8
  can0  215   [7]  FF F0 FF 30 FF FF 00
  can0  216   [2]  40 00
  can0  245   [8]  FF E0 00 18 53 10 FF E3
  can0  292   [8]  80 08 0A 80 0F A0 00 03
  can0  286   [2]  00 80
  can0  174   [8]  65 46 54 AA 02 00 00 00
  can0  176   [7]  00 1E 00 26 DE E0 62
  can0  177   [8]  FE 10 40 00 00 00 00 00
  can0  300   [2]  00 00
  can0  1A5   [7]  8F FE 00 00 00 32 24
  can0  2DE   [8]  02 00 80 05 F0 00 0D 96
  can0  160   [7]  31 23 24 00 08 FF E8
  can0  180   [8]  14 9B 32 43 12 00 31 10
  can0  182   [8]  00 00 00 00 00 11 00 C5
  can0  1F9   [8]  20 20 14 9B 00 00 4E 80
  can0  002   [5]  66 FF 00 07 E9
  can0  284   [8]  00 00 00 00 00 00 53 D9
  can0  285   [8]  00 00 00 00 00 00 53 DA
  can0  280   [8]  03 E1 80 00 00 00 A3 40
  can0  354   [8]  00 00 00 00 00 10 04 00
  can0  174   [8]  65 46 54 AA 03 00 00 00
  can0  176   [7]  00 1E 00 26 DE E0 63
  can0  177   [8]  FE 10 40 00 00 00 00 00
  can0  1A5   [7]  9F FE 00 00 00 32 24
  can0  2DE   [8]  02 00 80 05 F0 00 0D 96
  can0  355   [7]  00 00 00 00 00 00 40
  can0  160   [7]  31 23 24 00 08 FF E8
  can0  180   [8]  14 9B 32 43 12 00 32 10
  can0  182   [8]  00 00 00 00 00 12 00 C5
  can0  1F9   [8]  20 20 14 9B 00 00 4E 80
  can0  3AB   [4]  00 03 00 55
  can0  002   [5]  66 FF 00 07 DA
  can0  215   [7]  FF F0 FF 30 FF FF 00
  can0  216   [2]  40 00
  can0  245   [8]  FF E0 00 18 54 10 FF E0
  can0  292   [8]  80 08 0A 80 0F A0 00 00
  can0  286   [2]  00 C0
  can0  5E4   [3]  00 00 00
  can0  174   [8]  65 46 54 AA 04 00 00 00
  can0  176   [7]  00 1E 00 26 DE E0 64
  can0  177   [8]  FE 10 40 00 00 00 00 00
  can0  300   [2]  00 00
  can0  1A5   [7]  AF FE 00 00 00 32 24
  can0  2DE   [8]  02 00 80 05 F0 00 0D 96
  can0  160   [7]  31 23 24 00 08 FF E8
  can0  180   [8]  14 9B 32 43 12 00 33 10
  can0  182   [8]  00 00 00 00 00 13 00 C5
  can0  1F9   [8]  20 20 14 9B 00 00 4E 80
  can0  002   [5]  66 FF 00 07 CB
  can0  284   [8]  00 00 00 00 00 00 54 DA
  can0  285   [8]  00 00 00 00 00 00 54 DB
  can0  280   [8]  03 E1 80 00 00 00 9B 40
  can0  174   [8]  65 46 54 AA 05 00 00 00
  can0  176   [7]  00 1E 00 26 DE E0 65
  can0  177   [8]  FE 10 40 00 00 00 00 00
  can0  1A5   [7]  BF FE 00 00 00 32 24
  can0  2DE   [8]  02 00 80 05 F0 00 0D 96
  can0  160   [7]  31 23 24 00 08 FF E8
  can0  180   [8]  14 9B 32 43 12 00 34 10
  can0  182   [8]  00 00 00 00 00 14 00 C5
  can0  1F9   [8]  20 20 14 9B 00 00 4E 80
  can0  551   [8]  84 12 00 80 FF 02 80 FF
  can0  580   [8]  00 36 80 02 8F 00 00 28
  can0  002   [5]  66 FF 00 07 BC
  can0  6E2   [8]  00 00 79 00 00 00 00 55
  can0  215   [7]  FF F0 FF 30 FF FF 00
  can0  216   [2]  40 00
  can0  625   [6]  02 00 FF 1D 10 00
  can0  245   [8]  FF E0 00 18 55 10 FF E1
  can0  292   [8]  80 08 0A 80 1F A0 00 01
  can0  286   [2]  00 00
  can0  174   [8]  65 46 54 AA 06 00 00 00
  can0  176   [7]  00 1E 00 26 DE E0 66
  can0  177   [8]  FE 10 40 00 00 00 00 00
  can0  300   [2]  00 00
  can0  1A5   [7]  CF FE 00 00 00 32 24
  can0  2DE   [8]  02 00 80 05 F0 00 0D 96
  can0  160   [7]  31 23 24 00 08 FF E8
  can0  180   [8]  14 9B 32 43 12 00 35 10
  can0  182   [8]  00 00 00 00 00 15 00 C5
  can0  1F9   [8]  20 20 14 9B 00 00 4E 80
  can0  002   [5]  66 FF 00 07 AD
  can0  284   [8]  00 00 00 00 00 00 55 DB
  can0  285   [8]  00 00 00 00 00 00 55 DC
  can0  280   [8]  03 E0 80 00 00 00 A0 40
  can0  354   [8]  00 00 00 00 00 18 04 00
  can0  5C5   [8]  44 01 58 B6 00 0C 00 7F
  can0  174   [8]  65 46 54 AA 07 00 00 00
  can0  176   [7]  00 1E 00 26 DE E0 67
  can0  177   [8]  FE 10 40 00 00 00 00 00
  can0  421   [3]  08 00 00
  can0  560   [6]  AC 12 39 06 7F C0
  can0  1A5   [7]  DF FE 00 00 00 32 24
  can0  2DE   [8]  02 00 80 05 F0 00 0D 96
  can0  355   [7]  00 00 00 00 00 00 40
  can0  60D   [8]  08 06 18 00 00 00 40 00
  can0  160   [7]  31 23 24 00 08 FF E8
  can0  180   [8]  14 9B 32 43 12 00 36 10
  can0  182   [8]  00 00 00 00 00 16 00 C5
  can0  1F9   [8]  20 20 14 9B 00 00 4E 80
  can0  002   [5]  66 FF 00 07 9E
  can0  215   [7]  FF F0 FF 30 FF FF 00
  can0  216   [2]  40 00
  can0  245   [8]  FF E0 00 18 56 10 FF E2
  can0  6F6   [3]  7F 00 00
  can0  292   [8]  80 08 0A 80 0F A0 00 02
  can0  286   [2]  00 40
  can0  174   [8]  65 46 54 AA 08 00 00 00
  can0  176   [7]  00 1E 00 26 DE E0 68
  can0  177   [8]  FE 10 40 00 00 00 00 00
  can0  300   [2]  00 00
  can0  1A5   [7]  EF FE 00 00 00 32 24
  can0  2DE   [8]  02 00 80 05 F0 00 0D 96
  can0  358   [8]  01 02 80 00 02 03 00 00
  can0  160   [7]  31 23 24 00 08 FF E8
  can0  180   [8]  14 9B 32 43 12 00 37 10
  can0  182   [8]  00 00 00 00 00 17 00 C5
  can0  002   [5]  66 FF 00 07 8F
  can0  1F9   [8]  20 20 14 9B 00 00 4E 80
  can0  3AB   [4]  00 03 00 55
  can0  284   [8]  00 00 00 00 00 00 56 DC
  can0  285   [8]  00 00 00 00 00 00 56 DD
  can0  280   [8]  03 E1 80 00 00 00 9F 40
  can0  174   [8]  65 46 54 AA 09 00 00 00
  can0  176   [7]  00 1E 00 26 DE E0 69
  can0  177   [8]  FE 10 40 00 00 00 00 00
  can0  1A5   [7]  FF FE 00 00 00 32 24
  can0  2DE   [8]  02 00 80 05 F0 00 0D 96
  can0  35D   [8]  C0 03 00 00 00 00 00 00
  can0  160   [7]  31 23 24 00 08 FF E8
  can0  180   [8]  14 9B 32 43 12 00 38 10
  can0  002   [5]  66 FF 00 07 70
  can0  182   [8]  00 00 00 00 00 18 00 C5
  can0  1F9   [8]  20 20 14 9B 00 00 4E 80
  can0  215   [7]  FF F0 FF 30 FF FF 00
  can0  216   [2]  40 00
  can0  245   [8]  FF E0 00 18 57 10 FF E3
  can0  292   [8]  80 08 0A 80 0F A0 00 03
  can0  286   [2]  00 80
  can0  174   [8]  65 46 54 AA 0A 00 00 00
  can0  176   [7]  00 1E 00 26 DE E0 6A
  can0  177   [8]  FE 10 40 00 00 00 00 00
  can0  300   [2]  00 00
  can0  1A5   [7]  0F FE 00 00 00 32 24
  can0  2DE   [8]  02 00 80 05 F0 00 0D 96
  can0  385   [7]  00 00 84 82 84 83 F0
  can0  160   [7]  31 23 24 00 08 FF E8
  can0  002   [5]  66 FF 00 07 61
  can0  180   [8]  14 9B 32 43 12 00 39 10
  can0  182   [8]  00 00 00 00 00 19 00 C5
  can0  1F9   [8]  20 20 14 9B 00 00 4E 80
  can0  284   [8]  00 00 00 00 00 00 57 DD
  can0  285   [8]  00 00 00 00 00 00 57 DE
  can0  280   [8]  03 DF 80 00 00 00 9F 40
  can0  354   [8]  00 00 00 00 00 00 04 00
  can0  174   [8]  65 46 54 AA 0B 00 00 00
  can0  176   [7]  00 1E 00 26 DE E0 6B
  can0  177   [8]  FE 10 40 00 00 00 00 00
  can0  1A5   [7]  1F FE 00 00 00 32 24
  can0  2DE   [8]  02 00 80 05 F0 00 0D 96
  can0  355   [7]  00 00 00 00 00 00 40
  can0  002   [5]  66 FF 00 07 52
  can0  160   [7]  31 23 24 00 08 FF E8
  can0  180   [8]  14 9B 32 43 12 00 3A 10
  can0  182   [8]  00 00 00 00 00 1A 00 C5
  can0  1F9   [8]  20 20 14 9B 00 00 4E 80
  can0  215   [7]  FF F0 FF 30 FF FF 00
  can0  216   [2]  40 00
  can0  245   [8]  FF E0 00 18 58 10 FF E0
  can0  292   [8]  80 08 0A 80 0F A0 00 00
  can0  286   [2]  00 C0
  can0  174   [8]  65 46 54 AA 0C 00 00 00
  can0  176   [7]  00 1E 00 26 DE E0 6C
  can0  177   [8]  FE 10 40 00 00 00 00 00
  can0  300   [2]  00 00
  can0  1A5   [7]  2F FE 00 00 00 32 24
  can0  2DE   [8]  02 00 80 05 F0 00 0D 96
  can0  002   [5]  66 FF 00 07 43
  can0  160   [7]  31 23 24 00 08 FF E8
  can0  180   [8]  14 9B 32 43 12 00 3B 10
  can0  182   [8]  00 00 00 00 00 1B 00 C5
  can0  1F9   [8]  20 20 14 9B 00 00 4E 80
  can0  284   [8]  00 00 00 00 00 00 58 DE
  can0  285   [8]  00 00 00 00 00 00 58 DF
  can0  280   [8]  03 DF 80 00 00 00 9F 40
  can0  174   [8]  65 46 54 AA 0D 00 00 00
  can0  176   [7]  00 1E 00 26 DE E0 6D
  can0  177   [8]  FE 10 40 00 00 00 00 00
  can0  421   [3]  08 00 00
  can0  1A5   [7]  3F FE 00 00 00 32 24
  can0  2DE   [8]  02 00 80 05 F0 00 0D 96
  can0  002   [5]  66 FF 00 07 34
  can0  160   [7]  31 23 24 00 08 FF E8
  can0  180   [8]  14 9B 32 43 12 00 3C 10
  can0  182   [8]  00 00 00 00 00 1C 00 C5
  can0  1F9   [8]  20 20 14 9B 00 00 4E 80
  can0  215   [7]  FF F0 FF 30 FF FF 00
  can0  3AB   [4]  00 03 00 55
  can0  216   [2]  40 00
  can0  245   [8]  FF E0 00 18 59 10 FF E1
  can0  292   [8]  80 08 0A 80 0F A0 00 01
  can0  286   [2]  00 00
  can0  5E4   [3]  00 00 00
  can0  174   [8]  65 46 54 AA 0E 00 00 00
  can0  176   [7]  00 1E 00 26 DE E0 6E
  can0  177   [8]  FE 10 40 00 00 00 00 00
  can0  300   [2]  00 00
  can0  1A5   [7]  4F FE 00 00 00 32 24
  can0  2DE   [8]  02 00 80 05 F0 00 0D 96
  can0  002   [5]  66 FF 00 07 25
  can0  160   [7]  31 23 24 00 08 FF E8
  can0  180   [8]  14 9B 32 43 12 00 3D 10
  can0  182   [8]  00 00 00 00 00 1D 00 C5
  can0  1F9   [8]  20 20 14 9B 00 00 4E 80
  can0  284   [8]  00 00 00 00 00 00 59 DF
  can0  285   [8]  00 00 00 00 00 00 59 E0
  can0  280   [8]  03 E1 80 00 00 00 9E 40
  can0  354   [8]  00 00 00 00 00 08 04 00
  can0  174   [8]  65 46 54 AA 0F 00 00 00
  can0  176   [7]  00 1E 00 26 DE E0 6F
  can0  177   [8]  FE 10 40 00 00 00 00 00
  can0  1A5   [7]  5F FE 00 00 00 32 24
  can0  2DE   [8]  02 00 80 05 F0 00 0D 96
  can0  355   [7]  00 00 00 00 00 00 40
  can0  002   [5]  66 FF 00 07 16
  can0  215   [7]  FF F0 FF 30 FF FF 00
  can0  160   [7]  31 23 24 00 08 FF E8
  can0  180   [8]  14 9B 32 43 12 00 3E 10
  can0  182   [8]  00 00 00 00 00 1E 00 C5
  can0  1F9   [8]  20 20 14 9B 00 00 4E 80
  can0  216   [2]  40 00
  can0  551   [8]  84 13 00 80 FF 02 80 FF
  can0  245   [8]  FF E0 00 18 5A 10 FF E2
  can0  292   [8]  80 08 0A 80 0F A0 00 02
  can0  286   [2]  00 40
  can0  580   [8]  00 34 80 04 8F 00 00 2A
  can0  625   [6]  02 00 FF 1D 10 00
  can0  6E2   [8]  00 00 7A 00 00 00 00 55
  can0  174   [8]  65 46 54 AA 00 00 00 00
  can0  176   [7]  00 1E 00 26 DE E0 60
  can0  177   [8]  FE 10 40 00 00 00 00 00
  can0  300   [2]  00 00
  can0  1A5   [7]  6F FE 00 00 00 32 24
  can0  2DE   [8]  02 00 80 05 F0 00 0D 96
  can0  002   [5]  66 FF 00 07 07
  can0  160   [7]  31 23 24 00 08 FF E8
  can0  180   [8]  14 82 32 43 12 00 3F 10
  can0  182   [8]  00 00 00 00 00 1F 00 C5
  can0  1F9   [8]  20 20 14 82 00 00 4E 80
  can0  284   [8]  00 00 00 00 00 00 5A E0
  can0  280   [8]  03 E0 80 00 00 00 A0 40
  can0  285   [8]  00 00 00 00 00 00 5A E1
  can0  5C5   [8]  44 01 58 B6 00 0C 00 7F
  can0  174   [8]  65 46 54 AA 01 00 00 00
  can0  176   [7]  00 1E 00 26 DE E0 61
  can0  177   [8]  FE 10 40 00 00 00 00 00
  can0  560   [6]  AC 13 4C 06 7F C0
  can0  1A5   [7]  7F FE 00 00 00 32 24
  can0  2DE   [8]  02 00 80 05 F0 00 0D 96
  can0  60D   [8]  08 06 18 00 00 00 40 00
  can0  002   [5]  66 FF 00 07 F8
  can0  215   [7]  FF F0 FF 30 FF FF 00
  can0  216   [2]  40 00
  can0  160   [7]  31 23 24 00 08 FF E8
  can0  180   [8]  14 82 32 43 12 00 30 10
  can0  182   [8]  00 00 00 00 00 10 00 C5
  can0  1F9   [8]  20 20 14 82 00 00 4E 80
  can0  245   [8]  FF E0 00 18 5B 10 FF E3
  can0  6F6   [3]  7F 00 00
  can0  292   [8]  80 08 0A 80 0F A0 00 03
  can0  286   [2]  00 80
  can0  174   [8]  65 46 54 AA 02 00 00 00
  can0  176   [7]  00 1E 00 26 DE E0 62
  can0  177   [8]  FE 10 40 00 00 00 00 00
  can0  300   [2]  00 00
  can0  1A5   [7]  8F FE 00 00 00 32 24
  can0  358   [8]  01 02 80 00 02 03 00 00
  can0  2DE   [8]  02 00 80 05 F0 00 0D 96
  can0  002   [5]  66 FF 01 07 F9
  can0  160   [7]  31 23 24 00 08 FF E8
  can0  180   [8]  14 82 32 43 12 00 31 10
  can0  182   [8]  00 00 00 00 00 11 00 C5
  can0  1F9   [8]  20 20 14 82 00 00 4E 80
  can0  280   [8]  03 DF 80 00 00 00 9F 40
  can0  284   [8]  00 00 00 00 00 00 5B E1
  can0  285   [8]  00 00 00 00 00 00 5B E2
  can0  174   [8]  65 46 54 AA 03 00 00 00
  can0  354   [8]  00 00 00 00 00 10 04 00
  can0  176   [7]  00 1E 00 26 DE E0 63
  can0  3AB   [4]  00 03 00 55
  can0  177   [8]  FE 10 40 00 00 00 00 00
  can0  1A5   [7]  9F FE 00 00 00 32 24
  can0  421   [3]  08 00 00
  can0  35D   [8]  C0 03 00 00 00 00 00 00
  can0  2DE   [8]  02 00 80 05 F0 00 0D 96
  can0  355   [7]  00 00 00 00 00 00 40
  can0  002   [5]  66 FF 00 07 DA
  can0  215   [7]  FF F0 FF 30 FF FF 00
  can0  216   [2]  40 00
  can0  160   [7]  31 23 24 00 08 FF E8
  can0  180   [8]  14 82 32 43 12 00 32 10
  can0  182   [8]  00 00 00 00 00 12 00 C5
  can0  1F9   [8]  20 20 14 82 00 00 4E 80
  can0  245   [8]  FF E0 00 18 5C 10 FF E0
  can0  292   [8]  80 08 0A 80 0F A0 00 00
  can0  286   [2]  00 C0
  can0  174   [8]  65 46 54 AA 04 00 00 00
  can0  176   [7]  00 1E 00 26 DE E0 64
  can0  177   [8]  FE 10 40 00 00 00 00 00
  can0  300   [2]  00 00
  can0  1A5   [7]  AF FE 00 00 00 32 24
  can0  385   [7]  00 00 84 82 84 83 F0
  can0  2DE   [8]  02 00 80 05 F0 00 0D 96
  can0  002   [5]  66 FF 00 07 CB
  can0  284   [8]  00 00 00 00 00 00 5C E2
  can0  160   [7]  31 23 24 00 08 FF E8
  can0  180   [8]  14 82 32 43 12 00 33 10
  can0  182   [8]  00 00 00 00 00 13 00 C5
  can0  1F9   [8]  20 20 14 82 00 00 4E 80
  can0  280   [8]  03 DF 80 00 00 00 A2 40
  can0  174   [8]  65 46 54 AA 05 00 00 00
  can0  285   [8]  00 00 00 00 00 00 5C E3
  can0  176   [7]  00 1E 00 26 DE E0 65
  can0  177   [8]  FE 10 40 00 00 00 00 00
  can0  1A5   [7]  BF FE 00 00 00 32 24
  can0  2DE   [8]  02 00 80 05 F0 00 0D 96
  can0  002   [5]  66 FF 00 07 BC
  can0  215   [7]  FF F0 FF 30 FF FF 00
  can0  216   [2]  40 00
  can0  245   [8]  FF E0 00 18 5D 10 FF E1
  can0  292   [8]  80 08 0A 80 0F A0 00 01
  can0  160   [7]  31 23 24 00 08 FF E8
  can0  180   [8]  14 82 32 43 12 00 34 10
  can0  182   [8]  00 00 00 00 00 14 00 C5
  can0  1F9   [8]  20 20 14 82 00 00 4E 80
  can0  174   [8]  65 46 54 AA 06 00 00 00
  can0  286   [2]  00 00
  can0  176   [7]  00 1E 00 26 DE E0 66
  can0  177   [8]  FE 10 40 00 00 00 00 00
  can0  300   [2]  00 00
  can0  1A5   [7]  CF FE 00 00 00 32 24
  can0  2DE   [8]  02 00 80 05 F0 00 0D 96
  can0  002   [5]  66 FF 00 07 AD
  can0  284   [8]  00 00 00 00 00 00 5D E3
  can0  285   [8]  00 00 00 00 00 00 5D E4
  can0  280   [8]  03 E0 80 00 00 00 9D 40
  can0  160   [7]  31 23 24 00 08 FF E8
  can0  180   [8]  14 82 32 43 12 00 35 10
  can0  182   [8]  00 00 00 00 00 15 00 C5
  can0  174   [8]  65 46 54 AA 07 00 00 00
  can0  1F9   [8]  20 20 14 82 00 00 4E 80
  can0  176   [7]  00 1E 00 26 DE E0 67
  can0  354   [8]  00 00 00 00 00 18 04 00
  can0  177   [8]  FE 10 40 00 00 00 00 00
  can0  1A5   [7]  DF FE 00 00 00 32 24
  can0  2DE   [8]  02 00 80 05 F0 00 0D 96
  can0  355   [7]  00 00 00 00 00 00 40
  can0  002   [5]  66 FF 00 07 9E
  can0  215   [7]  FF F0 FF 30 FF FF 00
  can0  216   [2]  40 00
  can0  245   [8]  FF E0 00 18 5E 10 FF E2
  can0  292   [8]  80 08 0A 80 1F A0 00 02
  can0  286   [2]  00 40
  can0  5E4   [3]  00 00 00
  can0  160   [7]  31 23 24 00 08 FF E8
  can0  180   [8]  14 82 32 43 12 00 36 10
  can0  182   [8]  00 00 00 00 00 16 00 C5
  can0  174   [8]  65 46 54 AA 08 00 00 00
  can0  1F9   [8]  20 20 14 82 00 00 4E 80
  can0  176   [7]  00 1E 00 26 DE E0 68
  can0  1A5   [7]  EF FE 00 00 00 32 24
  can0  177   [8]  FE 10 40 00 00 00 00 00
  can0  300   [2]  00 00
  can0  3AB   [4]  00 03 00 55
  can0  2DE   [8]  02 00 80 05 F0 00 0D 96
  can0  002   [5]  66 FF 00 07 8F
  can0  284   [8]  00 00 00 00 00 00 5E E4
  can0  285   [8]  00 00 00 00 00 00 5E E5
  can0  280   [8]  03 DF 80 00 00 00 9F 40
  can0  160   [7]  31 23 24 00 08 FF E8
  can0  174   [8]  65 46 54 AA 09 00 00 00
  can0  180   [8]  14 82 32 43 12 00 37 10
  can0  176   [7]  00 1E 00 26 DE E0 69
  can0  182   [8]  00 00 00 00 00 17 00 C5
  can0  177   [8]  FE 10 40 00 00 00 00 00
  can0  1A5   [7]  FF FE 00 00 00 32 24
  can0  1F9   [8]  20 20 14 82 00 00 4E 80
  can0  421   [3]  08 00 00
  can0  2DE   [8]  02 00 80 05 F0 00 0D 96
  can0  002   [5]  66 FF 00 07 70
  can0  215   [7]  FF F0 FF 30 FF FF 00
  can0  216   [2]  40 00
  can0  625   [6]  02 00 FF 1D 10 00
  can0  245   [8]  FF E0 00 18 5F 10 FF E3
  can0  292   [8]  80 08 0A 80 0F A0 00 03
  can0  286   [2]  00 80
  can0  174   [8]  65 46 54 AA 0A 00 00 00
  can0  160   [7]  31 23 24 00 08 FF E8
  can0  176   [7]  00 1E 00 26 DE E0 6A
  can0  180   [8]  14 9B 32 43 12 00 38 10
  can0  177   [8]  FE 10 40 00 00 00 00 00
  can0  182   [8]  00 00 00 00 00 18 00 C5
  can0  1A5   [7]  0F FE 00 00 00 32 24
  can0  1F9   [8]  20 20 14 9B 00 00 4E 80
  can0  300   [2]  00 00
  can0  551   [8]  84 13 00 80 FF 02 80 FF
  can0  580   [8]  00 32 80 06 8F 00 00 31
  can0  6E2   [8]  00 00 7B 00 00 00 00 55
  can0  2DE   [8]  02 00 80 05 F0 00 0D 96
  can0  002   [5]  66 FF 00 07 61
  can0  284   [8]  00 00 00 00 00 00 5F E5
  can0  285   [8]  00 00 00 00 00 00 5F E6
  can0  280   [8]  03 DF 80 00 00 00 9F 40
  can0  354   [8]  00 00 00 00 00 00 04 00
  can0  5C5   [8]  44 01 58 B6 00 0C 00 7F
  can0  174   [8]  65 46 54 AA 0B 00 00 00
  can0  160   [7]  31 23 24 00 08 FF E8
  can0  176   [7]  00 1E 00 26 DE E0 6B
  can0  180   [8]  14 9B 32 43 12 00 39 10
  can0  177   [8]  FE 10 40 00 00 00 00 00
  can0  182   [8]  00 00 00 00 00 19 00 C5
  can0  1A5   [7]  1F FE 00 00 00 32 24
  can0  1F9   [8]  20 20 14 9B 00 00 4E 80
  can0  560   [6]  AC 14 30 06 7F C0
  can0  60D   [8]  08 06 18 00 00 00 40 00
  can0  2DE   [8]  02 00 80 05 F0 00 0D 96
  can0  355   [7]  00 00 00 00 00 00 40
  can0  002   [5]  66 FF 00 07 52
  can0  215   [7]  FF F0 FF 30 FF FF 00
  can0  216   [2]  40 00
  can0  245   [8]  FF E0 00 18 60 10 FF E0
  can0  6F6   [3]  7D 00 00
  can0  292   [8]  80 08 0A 80 1F A0 00 00
  can0  286   [2]  00 C0
  can0  174   [8]  65 46 54 AA 0C 00 00 00
  can0  176   [7]  00 1E 00 26 DE E0 6C
  can0  177   [8]  FE 10 40 00 00 00 00 00
  can0  160   [7]  31 23 24 00 08 FF E8
  can0  180   [8]  14 9B 32 43 12 00 3A 10
  can0  182   [8]  00 00 00 00 00 1A 00 C5
  can0  1A5   [7]  2F FE 00 00 00 32 24
  can0  1F9   [8]  20 20 14 9B 00 00 4E 80
  can0  300   [2]  00 00
  can0  358   [8]  01 02 80 00 02 03 00 00
  can0  2DE   [8]  02 00 80 05 F0 00 0D 96
  can0  002   [5]  66 FF 00 07 43
  can0  284   [8]  00 00 00 00 00 00 60 E6
  can0  285   [8]  00 00 00 00 00 00 60 E7
  can0  280   [8]  03 DF 80 00 00 00 9F 40
  can0  174   [8]  65 46 54 AA 0D 00 00 00
  can0  176   [7]  00 1E 00 26 DE E0 6D
  can0  177   [8]  FE 10 40 00 00 00 00 00
  can0  1A5   [7]  3F FE 00 00 00 32 24
  can0  160   [7]  31 23 24 00 08 FF E8
  can0  180   [8]  14 9B 32 43 12 00 3B 10
  can0  182   [8]  00 00 00 00 00 1B 00 C5
  can0  1F9   [8]  20 20 14 9B 00 00 4E 80
  can0  3AB   [4]  00 03 00 55
  can0  35D   [8]  C0 03 00 00 00 00 00 00
  can0  2DE   [8]  02 00 80 05 F0 00 0D 96
  can0  002   [5]  66 FF 00 07 34
  can0  215   [7]  FF F0 FF 30 FF FF 00
  can0  216   [2]  40 00
  can0  245   [8]  FF E0 00 18 61 10 FF E1
  can0  292   [8]  80 08 0A 80 1F A0 00 01
  can0  286   [2]  00 00
  can0  174   [8]  65 46 54 AA 0E 00 00 00
  can0  176   [7]  00 1E 00 26 DE E0 6E
  can0  177   [8]  FE 10 40 00 00 00 00 00
  can0  1A5   [7]  4F FE 00 00 00 32 24
  can0  160   [7]  31 23 24 00 08 FF E8
  can0  180   [8]  14 9B 32 43 12 00 3C 10
  can0  182   [8]  00 00 00 00 00 1C 00 C5
  can0  1F9   [8]  20 20 14 9B 00 00 4E 80
  can0  300   [2]  00 00
  can0  385   [7]  00 00 84 82 84 83 F0
  can0  2DE   [8]  02 00 80 05 F0 00 0D 96
  can0  002   [5]  66 FF 00 07 25
  can0  284   [8]  00 00 00 00 00 00 61 E7
  can0  285   [8]  00 00 00 00 00 00 61 E8
  can0  280   [8]  03 E0 80 00 00 00 9E 40
  can0  354   [8]  00 00 00 00 00 08 04 00
  can0  174   [8]  65 46 54 AA 0F 00 00 00
  can0  176   [7]  00 1E 00 26 DE E0 6F
  can0  177   [8]  FE 10 40 00 00 00 00 00
  can0  421   [3]  08 00 00
  can0  1A5   [7]  5F FE 00 00 00 32 24
  can0  160   [7]  31 23 24 00 08 FF E8
  can0  180   [8]  14 82 32 43 12 00 3D 10
  can0  182   [8]  00 00 00 00 00 1D 00 C5
  can0  1F9   [8]  20 20 14 82 00 00 4E 80
  can0  2DE   [8]  02 00 80 05 F0 00 0D 96
  can0  355   [7]  00 00 00 00 00 00 40
  can0  002   [5]  66 FF 01 07 06
  can0  215   [7]  FF F0 FF 30 FF FF 00
  can0  216   [2]  40 00
  can0  245   [8]  FF E0 00 18 62 10 FF E2
  can0  292   [8]  80 08 0A 80 0F A0 00 02
  can0  286   [2]  00 40
  can0  174   [8]  65 46 54 AA 00 00 00 00
  can0  176   [7]  00 1E 00 26 DE E0 60
  can0  177   [8]  FE 10 40 00 00 00 00 00
  can0  1A5   [7]  6F FE 00 00 00 32 24
  can0  300   [2]  00 00
  can0  160   [7]  31 23 24 00 08 FF E8
  can0  180   [8]  14 82 32 43 12 00 3E 10
  can0  182   [8]  00 00 00 00 00 1E 00 C5
  can0  1F9   [8]  20 20 14 82 00 00 4E 80
  can0  2DE   [8]  02 00 80 05 F0 00 0D 96
  can0  002   [5]  66 FF 01 07 17
  can0  284   [8]  00 00 00 00 00 00 62 E8
  can0  285   [8]  00 00 00 00 00 00 62 E9
  can0  280   [8]  03 DF 80 00 00 00 9F 40
  can0  174   [8]  65 46 54 AA 01 00 00 00
  can0  176   [7]  00 1E 00 26 DE E0 61
  can0  177   [8]  FE 10 40 00 00 00 00 00
  can0  1A5   [7]  7F FE 00 00 00 32 24
  can0  160   [7]  31 23 24 00 08 FF E8
  can0  180   [8]  14 82 32 43 12 00 3F 10
  can0  182   [8]  00 00 00 00 00 1F 00 C5
  can0  1F9   [8]  20 20 14 82 00 00 4E 80
  can0  2DE   [8]  02 00 80 05 F0 00 0D 96
  can0  002   [5]  66 FF 00 07 F8
  can0  215   [7]  FF F0 FF 30 FF FF 00
  can0  216   [2]  40 00
  can0  245   [8]  FF E0 00 18 63 10 FF E3
  can0  292   [8]  80 08 0A 80 0F A0 00 03
  can0  286   [2]  00 80
  can0  5E4   [3]  00 00 00
  can0  174   [8]  65 46 54 AA 02 00 00 00
  can0  176   [7]  00 1E 00 26 DE E0 62
  can0  177   [8]  FE 10 40 00 00 00 00 00
  can0  1A5   [7]  8F FE 00 00 00 32 24
  can0  300   [2]  00 00
  can0  160   [7]  31 23 24 00 08 FF E8
  can0  180   [8]  14 82 32 43 12 00 30 10
  can0  182   [8]  00 00 00 00 00 10 00 C5
  can0  1F9   [8]  20 20 14 82 00 00 4E 80
  can0  3AB   [4]  00 03 00 55
  can0  2DE   [8]  02 00 80 05 F0 00 0D 96
  can0  002   [5]  66 FF 00 07 E9
  can0  284   [8]  00 00 00 00 00 00 63 E9
  can0  285   [8]  00 00 00 00 00 00 63 EA
  can0  280   [8]  03 DF 80 00 00 00 A0 40
  can0  354   [8]  00 00 00 00 00 10 04 00
  can0  174   [8]  65 46 54 AA 03 00 00 00
  can0  176   [7]  00 1E 00 26 DE E0 63
  can0  177   [8]  FE 10 40 00 00 00 00 00
  can0  1A5   [7]  9F FE 00 00 00 32 24
  can0  160   [7]  31 23 24 00 08 FF E8
  can0  180   [8]  14 82 32 43 12 00 31 10
  can0  182   [8]  00 00 00 00 00 11 00 C5
  can0  1F9   [8]  20 20 14 82 00 00 4E 80
  can0  2DE   [8]  02 00 80 05 F0 00 0D 96
  can0  355   [7]  00 00 00 00 00 00 40
  can0  002   [5]  66 FF 00 07 DA
  can0  215   [7]  FF F0 FF 30 FF FF 00
  can0  216   [2]  40 00
  can0  625   [6]  02 00 FF 1D 10 00
  can0  245   [8]  FF E0 00 18 64 10 FF E0
  can0  292   [8]  80 08 0A 80 1F A0 00 00
  can0  286   [2]  00 C0
  can0  174   [8]  65 46 54 AA 04 00 00 00
  can0  176   [7]  00 1E 00 26 DE E0 64
  can0  177   [8]  FE 10 40 00 00 00 00 00
  can0  1A5   [7]  AF FE 00 00 00 32 24
  can0  300   [2]  00 00
  can0  160   [7]  31 23 24 00 08 FF E8
  can0  180   [8]  14 82 32 43 12 00 32 10
  can0  182   [8]  00 00 00 00 00 12 00 C5
  can0  1F9   [8]  20 20 14 82 00 00 4E 80
  can0  551   [8]  84 13 00 80 FF 02 80 FF
  can0  580   [8]  00 32 80 00 8F 00 00 2D
  can0  6E2   [8]  00 00 78 00 00 00 00 55
  can0  2DE   [8]  02 00 80 05 F0 00 0D 96
  can0  002   [5]  66 FF 00 07 CB
  can0  284   [8]  00 00 00 00 00 00 64 EA
  can0  285   [8]  00 00 00 00 00 00 64 EB
  can0  280   [8]  03 E0 80 00 00 00 9D 40
  can0  5C5   [8]  44 01 58 B6 00 0C 00 7F
  can0  174   [8]  65 46 54 AA 05 00 00 00
  can0  176   [7]  00 1E 00 26 DE E0 65
  can0  177   [8]  FE 10 40 00 00 00 00 00
  can0  1A5   [7]  BF FE 00 00 00 32 24
  can0  421   [3]  08 00 00
  can0  560   [6]  AC 15 31 06 7F C0
  can0  160   [7]  31 23 24 00 08 FF E8
  can0  180   [8]  14 82 32 43 12 00 33 10
  can0  182   [8]  00 00 00 00 00 13 00 C5
  can0  1F9   [8]  20 20 14 82 00 00 4E 80
  can0  60D   [8]  08 06 18 00 00 00 40 00
  can0  2DE   [8]  02 00 80 05 F0 00 0D 96
  can0  002   [5]  66 FF 00 07 BC
  can0  215   [7]  FF F0 FF 30 FF FF 00
  can0  216   [2]  40 00
  can0  245   [8]  FF E0 00 18 65 10 FF E1
  can0  6F6   [3]  7E 00 00
  can0  292   [8]  80 08 0A 80 0F A0 00 01
  can0  286   [2]  00 00
  can0  174   [8]  65 46 54 AA 06 00 00 00
  can0  176   [7]  00 1E 00 26 DE E0 66
  can0  177   [8]  FE 10 40 00 00 00 00 00
  can0  1A5   [7]  CF FE 00 00 00 32 24
  can0  300   [2]  00 00
  can0  160   [7]  31 23 24 00 08 FF E8
  can0  180   [8]  14 82 32 43 12 00 34 10
  can0  182   [8]  00 00 00 00 00 14 00 C5
  can0  1F9   [8]  20 20 14 82 00 00 4E 80
  can0  2DE   [8]  02 00 80 05 F0 00 0D 96
  can0  358   [8]  01 02 80 00 02 03 00 00
  can0  002   [5]  66 FF 00 07 AD
  can0  284   [8]  00 00 00 00 00 00 65 EB
  can0  285   [8]  00 00 00 00 00 00 65 EC
  can0  280   [8]  03 E0 80 00 00 00 A3 40
  can0  354   [8]  00 00 00 00 00 18 04 00
  can0  174   [8]  65 46 54 AA 07 00 00 00
  can0  176   [7]  00 1E 00 26 DE E0 67
  can0  177   [8]  FE 10 40 00 00 00 00 00
  can0  1A5   [7]  DF FE 00 00 00 32 24
  can0  160   [7]  31 23 24 00 08 FF E8
  can0  180   [8]  14 82 32 43 12 00 35 10
  can0  182   [8]  00 00 00 00 00 15 00 C5
  can0  1F9   [8]  20 20 14 82 00 00 4E 80
  can0  2DE   [8]  02 00 80 05 F0 00 0D 96
  can0  355   [7]  00 00 00 00 00 00 40
  can0  35D   [8]  C0 03 00 00 00 00 00 00
  can0  3AB   [4]  00 03 00 55
  can0  002   [5]  66 FF 00 07 9E
  can0  215   [7]  FF F0 FF 30 FF FF 00
  can0  216   [2]  40 00
  can0  245   [8]  FF E0 00 18 66 10 FF E2
  can0  292   [8]  80 08 0A 80 0F A0 00 02
  can0  286   [2]  00 40
  can0  174   [8]  65 46 54 AA 08 00 00 00
  can0  176   [7]  00 1E 00 26 DE E0 68
  can0  177   [8]  FE 10 40 00 00 00 00 00
  can0  1A5   [7]  EF FE 00 00 00 32 24
  can0  300   [2]  00 00
  can0  160   [7]  31 23 24 00 08 FF E8
  can0  180   [8]  14 69 32 43 12 00 36 10
  can0  182   [8]  00 00 00 00 00 16 00 C5
  can0  1F9   [8]  20 20 14 69 00 00 4E 80
  can0  2DE   [8]  02 00 80 05 F0 00 0D 96
  can0  385   [7]  00 00 84 82 84 83 F0
  can0  002   [5]  66 FF 00 07 8F
  can0  284   [8]  00 00 00 00 00 00 66 EC
  can0  285   [8]  00 00 00 00 00 00 66 ED
  can0  280   [8]  03 E0 80 00 00 00 9E 40
  can0  174   [8]  65 46 54 AA 09 00 00 00
  can0  176   [7]  00 1E 00 26 DE E0 69
  can0  177   [8]  FE 10 40 00 00 00 00 00
  can0  1A5   [7]  FF FE 00 00 00 32 24
  can0  160   [7]  31 23 24 00 08 FF E8
  can0  180   [8]  14 69 32 43 12 00 37 10
  can0  182   [8]  00 00 00 00 00 17 00 C5
  can0  1F9   [8]  20 20 14 69 00 00 4E 80
  can0  2DE   [8]  02 00 80 05 F0 00 0D 96
  can0  002   [5]  66 FF 00 07 70
  can0  215   [7]  FF F0 FF 30 FF FF 00
  can0  216   [2]  40 00
  can0  245   [8]  FF E0 00 18 67 10 FF E3
  can0  292   [8]  80 08 0A 80 0F A0 00 03
  can0  286   [2]  00 80
  can0  174   [8]  65 46 54 AA 0A 00 00 00
  can0  176   [7]  00 1E 00 26 DE E0 6A
  can0  177   [8]  FE 10 40 00 00 00 00 00
  can0  1A5   [7]  0F FE 00 00 00 32 24
  can0  300   [2]  00 00
  can0  160   [7]  31 23 24 00 08 FF E8
  can0  180   [8]  14 69 32 43 12 00 38 10
  can0  182   [8]  00 00 00 00 00 18 00 C5
  can0  1F9   [8]  20 20 14 69 00 00 4E 80
  can0  2DE   [8]  02 00 80 05 F0 00 0D 96
  can0  002   [5]  66 FF 00 07 61
  can0  284   [8]  00 00 00 00 00 00 67 ED
  can0  285   [8]  00 00 00 00 00 00 67 EE
  can0  280   [8]  03 DE 80 00 00 00 9D 40
  can0  354   [8]  00 00 00 00 00 00 04 00
  can0  174   [8]  65 46 54 AA 0B 00 00 00
  can0  176   [7]  00 1E 00 26 DE E0 6B
  can0  177   [8]  FE 10 40 00 00 00 00 00
  can0  1A5   [7]  1F FE 00 00 00 32 24
  can0  421   [3]  08 00 00
  can0  2DE   [8]  02 00 80 05 F0 00 0D 96
  can0  160   [7]  31 23 24 00 08 FF E8
  can0  180   [8]  14 69 32 43 12 00 39 10
  can0  182   [8]  00 00 00 00 00 19 00 C5
  can0  1F9   [8]  20 20 14 69 00 00 4E 80
  can0  355   [7]  00 00 00 00 00 00 40
  can0  002   [5]  66 FF 00 07 52
  can0  215   [7]  FF F0 FF 30 FF FF 00
  can0  216   [2]  40 00
  can0  245   [8]  FF E0 00 18 68 10 FF E0
  can0  292   [8]  80 08 0A 80 0F A0 00 00
  can0  286   [2]  00 C0
  can0  5E4   [3]  00 00 00
  can0  174   [8]  65 46 54 AA 0C 00 00 00
  can0  176   [7]  00 1E 00 26 DE E0 6C
  can0  177   [8]  FE 10 40 00 00 00 00 00
  can0  1A5   [7]  2F FE 00 00 00 32 24
  can0  300   [2]  00 00
  can0  2DE   [8]  02 00 80 05 F0 00 0D 96
  can0  160   [7]  31 23 24 00 08 FF E8
  can0  180   [8]  14 50 32 43 12 00 3A 10
  can0  182   [8]  00 00 00 00 00 1A 00 C5
  can0  1F9   [8]  20 20 14 50 00 00 4E 80
  can0  3AB   [4]  00 03 00 55
  can0  002   [5]  66 FF 00 07 43
  can0  284   [8]  00 00 00 00 00 00 68 EE
  can0  285   [8]  00 00 00 00 00 00 68 EF
  can0  280   [8]  03 E0 80 00 00 00 A0 40
  can0  174   [8]  65 46 54 AA 0D 00 00 00
  can0  176   [7]  00 1E 00 26 DE E0 6D
  can0  177   [8]  FE 10 40 00 00 00 00 00
  can0  1A5   [7]  3F FE 00 00 00 32 24
  can0  2DE   [8]  02 00 80 05 F0 00 0D 96
  can0  160   [7]  31 23 24 00 08 FF E8
  can0  180   [8]  14 50 32 43 12 00 3B 10
  can0  182   [8]  00 00 00 00 00 1B 00 C5
  can0  1F9   [8]  20 20 14 50 00 00 4E 80
  can0  002   [5]  66 FF 00 07 34
  can0  215   [7]  FF F0 FF 30 FF FF 00
  can0  216   [2]  40 00
  can0  625   [6]  02 00 FF 1D 10 00
  can0  245   [8]  FF E0 00 18 69 10 FF E1
  can0  292   [8]  80 08 0A 80 1F A0 00 01
  can0  286   [2]  00 00
  can0  174   [8]  65 46 54 AA 0E 00 00 00
  can0  176   [7]  00 1E 00 26 DE E0 6E
  can0  177   [8]  FE 10 40 00 00 00 00 00
  can0  1A5   [7]  4F FE 00 00 00 32 24
  can0  300   [2]  00 00
  can0  2DE   [8]  02 00 80 05 F0 00 0D 96
  can0  160   [7]  31 23 24 00 08 FF E8
  can0  180   [8]  14 50 32 43 12 00 3C 10
  can0  182   [8]  00 00 00 00 00 1C 00 C5
  can0  1F9   [8]  20 20 14 50 00 00 4E 80
  can0  551   [8]  84 13 00 80 FF 02 80 FF
  can0  580   [8]  00 32 80 02 8F 00 00 28
  can0  6E2   [8]  00 00 79 00 00 00 00 55
  can0  002   [5]  66 FF 00 07 25
  can0  284   [8]  00 00 00 00 00 00 69 EF
  can0  285   [8]  00 00 00 00 00 00 69 F0
  can0  280   [8]  03 E1 80 00 00 00 9E 40
  can0  354   [8]  00 00 00 00 00 08 04 00
  can0  5C5   [8]  44 01 58 B6 00 0C 00 7F
  can0  174   [8]  65 46 54 AA 0F 00 00 00
  can0  176   [7]  00 1E 00 26 DE E0 6F
  can0  177   [8]  FE 10 40 00 00 00 00 00
  can0  1A5   [7]  5F FE 00 00 00 32 24
  can0  560   [6]  AC 16 AD 06 7F C0
  can0  60D   [8]  08 06 18 00 00 00 40 00
  can0  2DE   [8]  02 00 80 05 F0 00 0D 96
  can0  355   [7]  00 00 00 00 00 00 40
  can0  160   [7]  31 23 24 00 08 FF E8
  can0  180   [8]  14 50 32 43 12 00 3D 10
  can0  182   [8]  00 00 00 00 00 1D 00 C5
  can0  1F9   [8]  20 20 14 50 00 00 4E 80
  can0  002   [5]  66 FF 00 07 16
  can0  215   [7]  FF F0 FF 30 FF FF 00
  can0  216   [2]  40 00
  can0  245   [8]  FF E0 00 18 6A 10 FF E2
  can0  6F6   [3]  7E 00 00
  can0  292   [8]  80 08 0A 80 2F A0 00 02
  can0  286   [2]  00 40
  can0  174   [8]  65 46 54 AA 00 00 00 00
  can0  176   [7]  00 1E 00 26 DE E0 60
  can0  177   [8]  FE 10 40 00 00 00 00 00
  can0  1A5   [7]  6F FE 00 00 00 32 24
  can0  300   [2]  00 00
  can0  358   [8]  01 02 80 00 02 03 00 00
  can0  2DE   [8]  02 00 80 05 F0 00 0D 96
  can0  160   [7]  31 23 24 00 08 FF E8
  can0  180   [8]  14 50 32 43 12 00 3E 10
  can0  182   [8]  00 00 00 00 00 1E 00 C5
  can0  1F9   [8]  20 20 14 50 00 00 4E 80
  can0  002   [5]  66 FF 00 07 07
  can0  284   [8]  00 00 00 00 00 00 6A F0
  can0  285   [8]  00 00 00 00 00 00 6A F1
  can0  280   [8]  03 E0 80 00 00 00 A0 40
  can0  174   [8]  65 46 54 AA 01 00 00 00
  can0  176   [7]  00 1E 00 26 DE E0 61
  can0  177   [8]  FE 10 40 00 00 00 00 00
  can0  1A5   [7]  7F FE 00 00 00 32 24
  can0  421   [3]  08 00 00
  can0  35D   [8]  C0 03 00 00 00 00 00 00
  can0  2DE   [8]  02 00 80 05 F0 00 0D 96
  can0  160   [7]  31 23 25 00 08 FF E8
  can0  180   [8]  14 37 32 53 12 00 3F 10
  can0  182   [8]  00 00 00 00 00 1F 00 C5
  can0  1F9   [8]  20 20 14 37 00 00 4E 80
  can0  002   [5]  66 FF 00 07 F8
  can0  3AB   [4]  00 03 00 55
  can0  215   [7]  FF F0 FF 30 FF FF 00
  can0  216   [2]  40 00
  can0  245   [8]  FF E0 00 18 6B 10 FF E3
  can0  292   [8]  80 08 0A 80 0F A0 00 03
  can0  286   [2]  00 80
  can0  174   [8]  65 46 54 AA 02 00 00 00
  can0  176   [7]  00 1E 00 26 DE E0 62
  can0  177   [8]  FE 10 40 00 00 00 00 00
  can0  1A5   [7]  8F FE 00 00 00 32 24
  can0  300   [2]  00 00
  can0  385   [7]  00 00 84 82 84 83 F0
  can0  2DE   [8]  02 00 80 05 F0 00 0D 96
  can0  160   [7]  31 23 25 00 08 FF E8
  can0  180   [8]  14 37 32 53 12 00 30 10
  can0  182   [8]  00 00 00 00 00 10 00 C5
  can0  002   [5]  66 FF 00 07 E9
  can0  1F9   [8]  20 20 14 37 00 00 4E 80
  can0  284   [8]  00 00 00 00 00 00 6B F1
  can0  285   [8]  00 00 00 00 00 00 6B F2
  can0  280   [8]  03 DF 80 00 00 00 9E 40
  can0  354   [8]  00 00 00 00 00 10 04 00
  can0  174   [8]  65 46 54 AA 03 00 00 00
  can0  176   [7]  00 1E 00 26 DE E0 63
  can0  177   [8]  FE 10 40 00 00 00 00 00
  can0  1A5   [7]  9F FE 00 00 00 32 24
  can0  2DE   [8]  02 00 80 05 F0 00 0D 96
  can0  355   [7]  00 00 00 00 00 00 40
  can0  160   [7]  31 23 25 00 08 FF E8
  can0  180   [8]  14 37 32 53 12 00 31 10
  can0  182   [8]  00 00 00 00 00 11 00 C5
  can0  002   [5]  66 FF 00 07 DA
  can0  1F9   [8]  20 20 14 37 00 00 4E 80
  can0  215   [7]  FF F0 FF 30 FF FF 00
  can0  216   [2]  40 00
  can0  245   [8]  FF E0 00 18 6C 10 FF E0
  can0  292   [8]  80 08 0A 80 0F A0 00 00
  can0  286   [2]  00 C0
  can0  174   [8]  65 46 54 AA 04 00 00 00
  can0  176   [7]  00 1E 00 26 DE E0 64
  can0  177   [8]  FE 10 40 00 00 00 00 00
  can0  1A5   [7]  AF FE 00 00 00 32 24
  can0  300   [2]  00 00
  can0  2DE   [8]  02 00 80 05 F0 00 0D 96
  can0  160   [7]  31 23 25 00 08 FF E8
  can0  002   [5]  66 FF 00 07 CB
  can0  180   [8]  14 37 32 53 12 00 32 10
  can0  182   [8]  00 00 00 00 00 12 00 C5
  can0  1F9   [8]  20 20 14 37 00 00 4E 80
  can0  284   [8]  00 00 00 00 00 00 6C F2
  can0  285   [8]  00 00 00 00 00 00 6C F3
  can0  280   [8]  03 E0 80 00 00 00 A1 40
  can0  174   [8]  65 46 54 AA 05 00 00 00
  can0  176   [7]  00 1E 00 26 DE E0 65
  can0  177   [8]  FE 10 40 00 00 00 00 00
  can0  1A5   [7]  BF FE 00 00 00 32 24
  can0  2DE   [8]  02 00 80 05 F0 00 0D 96
  can0  002   [5]  66 FF 00 07 BC
  can0  160   [7]  31 23 25 00 08 FF E8
  can0  180   [8]  14 37 32 53 12 00 33 10
  can0  182   [8]  00 00 00 00 00 13 00 C5
  can0  1F9   [8]  20 20 14 37 00 00 4E 80
  can0  215   [7]  FF F0 FF 30 FF FF 00
  can0  216   [2]  40 00
  can0  245   [8]  FF E0 00 18 6D 10 FF E1
  can0  292   [8]  80 08 0A 80 1F A0 00 01
  can0  286   [2]  00 00
  can0  5E4   [3]  00 00 00
  can0  174   [8]  65 46 54 AA 06 00 00 00
  can0  176   [7]  00 1E 00 26 DE E0 66
  can0  177   [8]  FE 10 40 00 00 00 00 00
  can0  1A5   [7]  CF FE 00 00 00 32 24
  can0  300   [2]  00 00
  can0  2DE   [8]  02 00 80 05 F0 00 0D 96
  can0  002   [5]  66 FF 00 07 AD
  can0  160   [7]  31 23 26 00 08 FF E8
  can0  180   [8]  14 37 32 63 12 00 34 10
  can0  182   [8]  00 00 00 00 00 14 00 C5
  can0  1F9   [8]  20 20 14 37 00 00 4E 80
  can0  3AB   [4]  00 03 00 55
  can0  284   [8]  00 00 00 00 00 00 6D F3
  can0  285   [8]  00 00 00 00 00 00 6D F4
  can0  280   [8]  03 E0 80 00 00 00 9E 40
  can0  354   [8]  00 00 00 00 00 18 04 00
  can0  174   [8]  65 46 54 AA 07 00 00 00
  can0  176   [7]  00 1E 00 26 DE E0 67
  can0  1A5   [7]  DF FE 00 00 00 32 24
  can0  177   [8]  FE 10 40 00 00 00 00 00
  can0  421   [3]  08 00 00
  can0  2DE   [8]  02 00 80 05 F0 00 0D 96
  can0  355   [7]  00 00 00 00 00 00 40
  can0  002   [5]  66 FF 01 07 8E
  can0  160   [7]  31 23 26 00 08 FF E8
  can0  180   [8]  14 37 32 63 12 00 35 10
  can0  182   [8]  00 00 00 00 00 15 00 C5
  can0  1F9   [8]  20 20 14 37 00 00 4E 80
  can0  215   [7]  FF F0 FF 30 FF FF 00
  can0  216   [2]  40 00
  can0  245   [8]  FF E0 00 18 6E 10 FF E2
  can0  292   [8]  80 08 0A 80 0F A0 00 02
  can0  286   [2]  00 40
  can0  625   [6]  02 00 FF 1D 10 00
  can0  174   [8]  65 46 54 AA 08 00 00 00
  can0  176   [7]  00 1E 00 26 DE E0 68
  can0  177   [8]  FE 10 40 00 00 00 00 00
  can0  1A5   [7]  EF FE 00 00 00 32 24
  can0  300   [2]  00 00
  can0  2DE   [8]  02 00 80 05 F0 00 0D 96
  can0  002   [5]  66 FF 00 07 8F
  can0  160   [7]  31 23 26 00 08 FF E8
  can0  180   [8]  14 37 32 63 12 00 36 10
  can0  182   [8]  00 00 00 00 00 16 00 C5
  can0  1F9   [8]  20 20 14 37 00 00 4E 80
  can0  551   [8]  84 13 00 80 FF 02 80 FF
  can0  580   [8]  00 32 80 04 8F 00 00 28
  can0  284   [8]  00 00 00 00 00 00 6E F4
  can0  280   [8]  03 E1 80 00 00 00 A0 40
  can0  285   [8]  00 00 00 00 00 00 6E F5
  can0  5C5   [8]  44 01 58 B6 00 0C 00 7F
  can0  6E2   [8]  00 00 7A 00 00 00 00 55
  can0  174   [8]  65 46 54 AA 09 00 00 00
  can0  176   [7]  00 1E 00 26 DE E0 69
  can0  1A5   [7]  FF FE 00 00 00 32 24
  can0  177   [8]  FE 10 40 00 00 00 00 00
  can0  560   [6]  AC 17 0C 06 7F C0
  can0  60D   [8]  08 06 18 00 00 00 40 00
  can0  2DE   [8]  02 00 80 05 F0 00 0D 96
  can0  002   [5]  66 FF 00 07 70
  can0  160   [7]  31 23 26 00 08 FF E8
  can0  180   [8]  14 37 32 63 12 00 37 10
  can0  182   [8]  00 00 00 00 00 17 00 C5
  can0  1F9   [8]  20 20 14 37 00 00 4E 80
  can0  215   [7]  FF F0 FF 30 FF FF 00
  can0  245   [8]  FF E0 00 18 6F 10 FF E3
  can0  216   [2]  40 00
  can0  6F6   [3]  7F 00 00
  can0  292   [8]  80 08 0A 80 1F A0 00 03
  can0  286   [2]  00 80
  can0  174   [8]  65 46 54 AA 0A 00 00 00
  can0  176   [7]  00 1E 00 26 DE E0 6A
  can0  1A5   [7]  0F FE 00 00 00 32 24
  can0  177   [8]  FE 10 40 00 00 00 00 00
  can0  300   [2]  00 00
  can0  358   [8]  01 02 80 00 02 03 00 00
  can0  2DE   [8]  02 00 80 05 F0 00 0D 96
  can0  002   [5]  66 FF 00 07 61
  can0  160   [7]  31 23 26 00 08 FF E8
  can0  180   [8]  14 37 32 63 12 00 38 10
  can0  182   [8]  00 00 00 00 00 18 00 C5
  can0  1F9   [8]  20 20 14 37 00 00 4E 80
  can0  284   [8]  00 00 00 00 00 00 6F F5
  can0  285   [8]  00 00 00 00 00 00 6F F6
  can0  280   [8]  03 E1 80 00 00 00 9F 40
  can0  354   [8]  00 00 00 00 00 00 04 00
  can0  174   [8]  65 46 54 AA 0B 00 00 00
  can0  176   [7]  00 1E 00 26 DE E0 6B
  can0  1A5   [7]  1F FE 00 00 00 32 24
  can0  177   [8]  FE 10 40 00 00 00 00 00
  can0  35D   [8]  C0 03 00 00 00 00 00 00
  can0  2DE   [8]  02 00 80 05 F0 00 0D 96
  can0  355   [7]  00 00 00 00 00 00 40
  can0  002   [5]  66 FF 01 07 42
  can0  215   [7]  FF F0 FF 30 FF FF 00
  can0  216   [2]  40 00
  can0  160   [7]  31 23 26 00 08 FF E8
  can0  180   [8]  14 37 32 63 12 00 39 10
  can0  182   [8]  00 00 00 00 00 19 00 C5
  can0  1F9   [8]  20 20 14 37 00 00 4E 80
  can0  245   [8]  FF E0 00 18 70 10 FF E0
  can0  292   [8]  80 08 0A 80 0F A0 00 00
  can0  286   [2]  00 C0
  can0  3AB   [4]  00 03 00 55
  can0  174   [8]  65 46 54 AA 0C 00 00 00
  can0  176   [7]  00 1E 00 26 DE E0 6C
  can0  1A5   [7]  2F FE 00 00 00 32 24
  can0  177   [8]  FE 10 40 00 00 00 00 00
  can0  300   [2]  00 00
  can0  385   [7]  00 00 84 82 84 83 F0
  can0  2DE   [8]  02 00 80 05 F0 00 0D 96
  can0  002   [5]  66 FF 00 07 43
  can0  160   [7]  31 23 26 00 08 FF E8
  can0  180   [8]  14 37 32 63 12 00 3A 10
  can0  182   [8]  00 00 00 00 00 1A 00 C5
  can0  1F9   [8]  20 20 14 37 00 00 4E 80
  can0  280   [8]  03 E0 80 00 00 00 9C 40
  can0  284   [8]  00 00 00 00 00 00 70 F6
  can0  285   [8]  00 00 00 00 00 00 70 F7
  can0  174   [8]  65 46 54 AA 0D 00 00 00
  can0  176   [7]  00 1E 00 26 DE E0 6D
  can0  1A5   [7]  3F FE 00 00 00 32 24
  can0  177   [8]  FE 10 40 00 00 00 00 00
  can0  421   [3]  08 00 00
  can0  2DE   [8]  02 00 80 05 F0 00 0D 96
  can0  002   [5]  66 FF 00 07 34
  can0  215   [7]  FF F0 FF 30 FF FF 00
  can0  216   [2]  40 00
  can0  160   [7]  31 23 26 00 08 FF E8
  can0  180   [8]  14 37 32 63 12 00 3B 10
  can0  182   [8]  00 00 00 00 00 1B 00 C5
  can0  1F9   [8]  20 20 14 37 00 00 4E 80
  can0  245   [8]  FF E0 00 18 71 10 FF E1
  can0  292   [8]  80 08 0A 80 1F A0 00 01
  can0  174   [8]  65 46 54 AA 0E 00 00 00
  can0  286   [2]  00 00
  can0  176   [7]  00 1E 00 26 DE E0 6E
  can0  1A5   [7]  4F FE 00 00 00 32 24
  can0  177   [8]  FE 10 40 00 00 00 00 00
  can0  300   [2]  00 00
  can0  2DE   [8]  02 00 80 05 F0 00 0D 96
  can0  002   [5]  66 FF 00 07 25
  can0  284   [8]  00 00 00 00 00 00 71 F7
  can0  160   [7]  31 23 26 00 08 FF E8
  can0  180   [8]  14 50 32 63 12 00 3C 10
  can0  182   [8]  00 00 00 00 00 1C 00 C5
  can0  1F9   [8]  20 20 14 50 00 00 4E 80
  can0  280   [8]  03 E0 80 00 00 00 A0 40
  can0  174   [8]  65 46 54 AA 0F 00 00 00
  can0  1A5   [7]  5F FE 00 00 00 32 24
  can0  176   [7]  00 1E 00 26 DE E0 6F
  can0  285   [8]  00 00 00 00 00 00 71 F8
  can0  177   [8]  FE 10 40 00 00 00 00 00
  can0  354   [8]  00 00 00 00 00 08 04 00
  can0  2DE   [8]  02 00 80 05 F0 00 0D 96
  can0  355   [7]  00 00 00 00 00 00 40
  can0  002   [5]  66 FF 00 07 16
  can0  215   [7]  FF F0 FF 30 FF FF 00
  can0  216   [2]  40 00
  can0  245   [8]  FF E0 00 18 72 10 FF E2
  can0  292   [8]  80 08 0A 80 0F A0 00 02
  can0  160   [7]  31 23 24 00 08 FF E8
  can0  180   [8]  14 50 32 43 12 00 3D 10
  can0  182   [8]  00 00 00 00 00 1D 00 C5
  can0  1F9   [8]  20 20 14 50 00 00 4E 80
  can0  174   [8]  65 46 54 AA 00 00 00 00
  can0  1A5   [7]  6F FE 00 00 00 32 24
  can0  176   [7]  00 1E 00 26 DE E0 60
  can0  286   [2]  00 40
  can0  177   [8]  FE 10 40 00 00 00 00 00
  can0  300   [2]  00 00
  can0  5E4   [3]  00 00 00
  can0  2DE   [8]  02 00 80 05 F0 00 0D 96
  can0  002   [5]  66 FF 00 07 07
  can0  284   [8]  00 00 00 00 00 00 72 F8
  can0  285   [8]  00 00 00 00 00 00 72 F9
  can0  280   [8]  03 DF 80 00 00 00 9E 40
  can0  160   [7]  31 23 24 00 08 FF E8
  can0  180   [8]  14 50 32 43 12 00 3E 10
  can0  182   [8]  00 00 00 00 00 1E 00 C5
  can0  174   [8]  65 46 54 AA 01 00 00 00
  can0  1A5   [7]  7F FE 00 00 00 32 24
  can0  176   [7]  00 1E 00 26 DE E0 61
  can0  1F9   [8]  20 20 14 50 00 00 4E 80
  can0  177   [8]  FE 10 40 00 00 00 00 00
  can0  3AB   [4]  00 03 00 55
  can0  2DE   [8]  02 00 80 05 F0 00 0D 96
  can0  002   [5]  66 FF 00 07 F8
  can0  215   [7]  FF F0 FF 30 FF FF 00
  can0  216   [2]  40 00
  can0  625   [6]  02 00 FF 1D 10 00
  can0  245   [8]  FF E0 00 18 73 10 FF E3
  can0  292   [8]  80 08 0A 80 0F A0 00 03
  can0  286   [2]  00 80
  can0  160   [7]  31 23 24 00 08 FF E8
  can0  180   [8]  14 50 32 43 12 00 3F 10
  can0  174   [8]  65 46 54 AA 02 00 00 00
  can0  182   [8]  00 00 00 00 00 1F 00 C5
  can0  176   [7]  00 1E 00 26 DE E0 62
  can0  1A5   [7]  8F FE 00 00 00 32 24
  can0  177   [8]  FE 10 40 00 00 00 00 00
  can0  1F9   [8]  20 20 14 50 00 00 4E 80
  can0  300   [2]  00 00
  can0  2DE   [8]  02 00 80 05 F0 00 0D 96
  can0  002   [5]  66 FF 00 07 E9
  can0  284   [8]  00 00 00 00 00 00 73 F9
  can0  285   [8]  00 00 00 00 00 00 73 FA
  can0  280   [8]  03 E2 80 00 00 00 A1 40
  can0  354   [8]  00 00 00 00 00 10 04 00
  can0  5C5   [8]  44 01 58 B6 00 0C 00 7F
  can0  160   [7]  31 23 24 00 08 FF E8
  can0  174   [8]  65 46 54 AA 03 00 00 00
  can0  180   [8]  14 50 32 43 12 00 30 10
  can0  176   [7]  00 1E 00 26 DE E0 63
  can0  182   [8]  00 00 00 00 00 10 00 C5
  can0  177   [8]  FE 10 40 00 00 00 00 00
  can0  1A5   [7]  9F FE 00 00 00 32 24
  can0  1F9   [8]  20 20 14 50 00 00 4E 80
  can0  421   [3]  08 00 00
  can0  551   [8]  84 14 00 80 FF 02 80 FF
  can0  560   [6]  AC 30 00 06 7F C0
  can0  580   [8]  00 32 80 06 8F 00 00 2F
  can0  6E2   [8]  00 00 7B 00 00 00 00 55
  can0  60D   [8]  08 06 18 00 00 00 40 00
  can0  2DE   [8]  02 00 80 05 F0 00 0D 96
  can0  355   [7]  00 00 00 00 00 00 40
  can0  002   [5]  66 FF 00 07 DA
  can0  215   [7]  FF F0 FF 30 FF FF 00
  can0  216   [2]  40 00
  can0  245   [8]  FF E0 00 18 74 10 FF E0
  can0  6F6   [3]  7E 00 00
  can0  292   [8]  80 08 0A 80 0F A0 00 00
  can0  286   [2]  00 C0
  can0  174   [8]  65 46 54 AA 04 00 00 00
  can0  160   [7]  31 23 24 00 08 FF E8
  can0  176   [7]  00 1E 00 26 DE E0 64
  can0  180   [8]  14 50 32 43 12 00 31 10
  can0  177   [8]  FE 10 40 00 00 00 00 00
  can0  182   [8]  00 00 00 00 00 11 00 C5
  can0  1A5   [7]  AF FE 00 00 00 32 24
  can0  1F9   [8]  20 20 14 50 00 00 4E 80
  can0  300   [2]  00 00
  can0  358   [8]  01 02 80 00 02 03 00 00
  can0  2DE   [8]  02 00 80 05 F0 00 0D 96
  can0  002   [5]  66 FF 00 07 CB
  can0  284   [8]  00 00 00 00 00 00 74 FA
  can0  285   [8]  00 00 00 00 00 00 74 FB
  can0  280   [8]  03 DF 80 00 00 00 9C 40
  can0  174   [8]  65 46 54 AA 05 00 00 00
  can0  176   [7]  00 1E 00 26 DE E0 65
  can0  160   [7]  31 23 24 00 08 FF E8
  can0  177   [8]  FE 10 40 00 00 00 00 00
  can0  180   [8]  14 50 32 43 12 00 32 10
  can0  182   [8]  00 00 00 00 00 12 00 C5
  can0  1A5   [7]  BF FE 00 00 00 32 24
  can0  1F9   [8]  20 20 14 50 00 00 4E 80
  can0  35D   [8]  C0 03 00 00 00 00 00 00
  can0  2DE   [8]  02 00 80 05 F0 00 0D 96
  can0  002   [5]  66 FF 00 07 BC
  can0  215   [7]  FF F0 FF 30 FF FF 00
  can0  216   [2]  40 00
